!Agilent Technologies,E5071B,JP1KK00267,A.09.10
!Date: Fri Sep 22 11:04:20 2017
!Data & Calibration Information:
!Freq	S11:SOLT4(ON)	S12:SOLT4(ON)	S13:SOLT4(ON)	S14:SOLT4(ON)
!	S21:SOLT4(ON)	S22:SOLT4(ON)	S23:SOLT4(ON)	S24:SOLT4(ON)
!	S31:SOLT4(ON)	S32:SOLT4(ON)	S33:SOLT4(ON)	S34:SOLT4(ON)
!	S41:SOLT4(ON)	S42:SOLT4(ON)	S43:SOLT4(ON)	S44:SOLT4(ON)
! "David Morgan-soldered to Test PCB SM1, calibration OSLT PCB 1000029771 Edge launch SMA connectors, port 1-pin1,port 2-pin6,port 3-pin4, port 4-pin3 ENA E5071B"
# Hz S dB R 50
5000000	-1.360149e+001	1.029993e+002	-2.276772e-001	1.186663e+001	-3.745397e+001	1.217168e+002	-2.358718e+001	-1.791621e+002
	-2.275424e-001	1.191709e+001	-1.352995e+001	1.017674e+002	-2.436887e+001	2.500384e+001	-3.751980e+001	1.102754e+002
	-3.747423e+001	1.218627e+002	-2.437358e+001	2.503887e+001	-1.319736e+001	1.026724e+002	-2.426070e-001	1.233559e+001
	-2.356285e+001	-1.790642e+002	-3.753130e+001	1.103446e+002	-2.483015e-001	1.231612e+001	-1.325408e+001	1.029601e+002
10000000	-1.952775e+001	9.718242e+001	-8.444460e-002	5.753501e+000	-4.272110e+001	1.147689e+002	-2.382037e+001	1.791162e+002
	-7.328806e-002	5.740194e+000	-1.945167e+001	9.474585e+001	-2.401862e+001	1.299703e+001	-4.290861e+001	9.356544e+001
	-4.274169e+001	1.158205e+002	-2.401933e+001	1.296287e+001	-1.903132e+001	9.573116e+001	-8.147179e-002	5.857408e+000
	-2.382638e+001	1.792817e+002	-4.294659e+001	9.275395e+001	-7.333410e-002	5.854397e+000	-1.910382e+001	9.673609e+001
15000000	-2.319274e+001	9.565205e+001	-5.328904e-002	3.345396e+000	-4.584904e+001	1.169557e+002	-2.385239e+001	1.786272e+002
	-4.595809e-002	3.482944e+000	-2.311857e+001	9.160634e+001	-2.394222e+001	8.852542e+000	-4.579321e+001	8.484408e+001
	-4.572263e+001	1.171211e+002	-2.396663e+001	8.744583e+000	-2.255122e+001	9.288827e+001	-6.793280e-002	3.736046e+000
	-2.383334e+001	1.783485e+002	-4.588717e+001	8.516489e+001	-5.263755e-002	3.527563e+000	-2.264862e+001	9.467552e+001
20000000	-2.597545e+001	9.500903e+001	-6.169406e-002	2.137912e+000	-4.767687e+001	1.188110e+002	-2.387613e+001	1.777592e+002
	-5.219536e-002	2.140531e+000	-2.588875e+001	8.994349e+001	-2.391066e+001	6.719875e+000	-4.772121e+001	7.952879e+001
	-4.776304e+001	1.181919e+002	-2.393012e+001	6.712920e+000	-2.512712e+001	9.165478e+001	-4.395209e-002	2.169439e+000
	-2.389401e+001	1.777587e+002	-4.784603e+001	7.917648e+001	-3.384054e-002	2.127443e+000	-2.520737e+001	9.371503e+001
25000000	-2.825994e+001	9.588159e+001	-4.569839e-002	1.352895e+000	-4.920562e+001	1.213016e+002	-2.384685e+001	1.771129e+002
	-2.296924e-002	1.288406e+000	-2.817018e+001	8.941380e+001	-2.393123e+001	5.514078e+000	-4.899250e+001	7.686634e+001
	-4.909437e+001	1.203854e+002	-2.393094e+001	5.828216e+000	-2.719796e+001	9.120903e+001	-6.079553e-002	1.236506e+000
	-2.381421e+001	1.768295e+002	-4.923158e+001	7.783543e+001	-4.801098e-002	1.154287e+000	-2.730441e+001	9.410913e+001
30000000	-3.022226e+001	9.836684e+001	-6.601146e-002	5.892026e-001	-5.017743e+001	1.239923e+002	-2.383348e+001	1.762863e+002
	-3.709650e-002	7.321335e-001	-3.023607e+001	8.994661e+001	-2.389405e+001	4.669968e+000	-4.980744e+001	7.712496e+001
	-4.963259e+001	1.235476e+002	-2.391646e+001	4.614880e+000	-2.879939e+001	9.226267e+001	-4.447877e-002	5.366028e-001
	-2.384848e+001	1.764616e+002	-4.989570e+001	7.545297e+001	-6.217681e-002	5.869817e-001	-2.889922e+001	9.570735e+001
35000000	-3.186532e+001	1.018411e+002	-6.723860e-002	3.218368e-001	-5.046517e+001	1.257250e+002	-2.382802e+001	1.756765e+002
	-5.512972e-002	2.541446e-001	-3.192798e+001	9.177212e+001	-2.389335e+001	4.210873e+000	-5.012703e+001	7.715822e+001
	-5.054777e+001	1.264887e+002	-2.392133e+001	4.171055e+000	-3.017553e+001	9.400303e+001	-7.930904e-002	3.814292e-002
	-2.383315e+001	1.756121e+002	-5.023742e+001	7.700848e+001	-5.592016e-002	7.298855e-002	-3.019048e+001	9.789554e+001
40000000	-3.330468e+001	1.057697e+002	-7.956719e-002	-2.087932e-001	-5.118772e+001	1.307643e+002	-2.383023e+001	1.749467e+002
	-7.510285e-002	-1.707406e-001	-3.344239e+001	9.379033e+001	-2.392024e+001	3.719878e+000	-5.028108e+001	7.801363e+001
	-5.093541e+001	1.304732e+002	-2.392228e+001	3.666041e+000	-3.120530e+001	9.578091e+001	-8.610817e-002	-5.130182e-001
	-2.380647e+001	1.749455e+002	-5.054052e+001	8.009196e+001	-7.843201e-002	-4.238185e-001	-3.115965e+001	1.004185e+002
45000000	-3.435002e+001	1.098120e+002	-7.501266e-002	-5.641815e-001	-5.143690e+001	1.292007e+002	-2.382534e+001	1.742382e+002
	-8.178500e-002	-5.303061e-001	-3.467447e+001	9.646890e+001	-2.392118e+001	3.529553e+000	-4.978323e+001	7.897253e+001
	-5.114605e+001	1.296515e+002	-2.390434e+001	3.321493e+000	-3.196907e+001	9.774965e+001	-9.415578e-002	-8.327873e-001
	-2.382153e+001	1.742091e+002	-5.046470e+001	7.807457e+001	-7.166871e-002	-8.318443e-001	-3.179568e+001	1.022592e+002
50000000	-3.543894e+001	1.131348e+002	-1.013553e-001	-8.746588e-001	-5.149239e+001	1.320063e+002	-2.382584e+001	1.734511e+002
	-8.468773e-002	-7.772783e-001	-3.580047e+001	9.886201e+001	-2.392036e+001	3.219547e+000	-4.973833e+001	7.958877e+001
	-5.124493e+001	1.316208e+002	-2.393584e+001	3.263318e+000	-3.254735e+001	9.912942e+001	-8.674679e-002	-1.121831e+000
	-2.381533e+001	1.734861e+002	-4.998157e+001	7.899458e+001	-8.123797e-002	-1.162607e+000	-3.231756e+001	1.037258e+002
55000000	-3.626027e+001	1.169025e+002	-9.694791e-002	-1.070410e+000	-5.127962e+001	1.334598e+002	-2.378711e+001	1.728638e+002
	-8.425457e-002	-9.676457e-001	-3.677977e+001	1.017831e+002	-2.393794e+001	3.169188e+000	-4.969474e+001	8.117974e+001
	-5.166009e+001	1.328129e+002	-2.395674e+001	3.166176e+000	-3.297490e+001	1.002766e+002	-8.837177e-002	-1.422054e+000
	-2.382423e+001	1.728781e+002	-4.998548e+001	7.868828e+001	-8.653544e-002	-1.480677e+000	-3.271522e+001	1.053733e+002
60000000	-3.697566e+001	1.206646e+002	-1.043589e-001	-1.406919e+000	-5.162053e+001	1.342742e+002	-2.383541e+001	1.722915e+002
	-7.581875e-002	-1.252545e+000	-3.771583e+001	1.041414e+002	-2.394475e+001	2.957069e+000	-4.913918e+001	7.878628e+001
	-5.150539e+001	1.314185e+002	-2.395316e+001	3.098824e+000	-3.334744e+001	1.013300e+002	-9.688140e-002	-1.786344e+000
	-2.382469e+001	1.722700e+002	-4.934920e+001	8.218009e+001	-9.376705e-002	-1.790580e+000	-3.306657e+001	1.057574e+002
65000000	-3.774634e+001	1.242340e+002	-9.119599e-002	-1.594813e+000	-5.183953e+001	1.332449e+002	-2.383460e+001	1.715090e+002
	-7.385558e-002	-1.509167e+000	-3.848856e+001	1.065839e+002	-2.396270e+001	3.015079e+000	-4.883519e+001	8.149903e+001
	-5.116158e+001	1.325054e+002	-2.396386e+001	2.968278e+000	-3.366330e+001	1.018052e+002	-1.358309e-001	-2.130771e+000
	-2.382079e+001	1.714511e+002	-4.891680e+001	8.098569e+001	-9.649945e-002	-2.063353e+000	-3.329485e+001	1.062061e+002
70000000	-3.835827e+001	1.279447e+002	-7.346935e-002	-1.719405e+000	-5.168884e+001	1.338432e+002	-2.383391e+001	1.707760e+002
	-1.062518e-001	-1.776329e+000	-3.941696e+001	1.088628e+002	-2.397879e+001	2.983903e+000	-4.832538e+001	8.144294e+001
	-5.153110e+001	1.333766e+002	-2.395465e+001	3.145579e+000	-3.390173e+001	1.017541e+002	-9.663498e-002	-2.230141e+000
	-2.381390e+001	1.709230e+002	-4.850774e+001	8.034202e+001	-1.199103e-001	-2.286664e+000	-3.346206e+001	1.060854e+002
75000000	-3.893714e+001	1.308549e+002	-7.335293e-002	-1.894886e+000	-5.127118e+001	1.357353e+002	-2.384684e+001	1.700947e+002
	-1.157132e-001	-1.984061e+000	-4.032164e+001	1.110789e+002	-2.395194e+001	2.928477e+000	-4.770678e+001	8.051826e+001
	-5.114449e+001	1.330496e+002	-2.396194e+001	3.190253e+000	-3.404279e+001	1.021952e+002	-9.128802e-002	-2.688228e+000
	-2.384881e+001	1.702306e+002	-4.820032e+001	8.246144e+001	-9.518571e-002	-2.473986e+000	-3.357839e+001	1.060548e+002
80000000	-3.947050e+001	1.351657e+002	-1.031901e-001	-2.164393e+000	-5.156006e+001	1.339395e+002	-2.383189e+001	1.693867e+002
	-1.266128e-001	-2.227209e+000	-4.106363e+001	1.129443e+002	-2.398555e+001	3.064650e+000	-4.752095e+001	8.107296e+001
	-5.116472e+001	1.320689e+002	-2.396554e+001	3.129594e+000	-3.416504e+001	1.018868e+002	-1.195847e-001	-2.640593e+000
	-2.386978e+001	1.695571e+002	-4.787685e+001	8.220117e+001	-1.169764e-001	-2.968838e+000	-3.371341e+001	1.059322e+002
85000000	-3.995870e+001	1.382070e+002	-1.075776e-001	-2.348399e+000	-5.089981e+001	1.328810e+002	-2.384010e+001	1.687125e+002
	-1.102503e-001	-2.315712e+000	-4.194951e+001	1.140645e+002	-2.399597e+001	3.130516e+000	-4.729494e+001	8.242811e+001
	-5.117668e+001	1.328083e+002	-2.400648e+001	3.304372e+000	-3.427444e+001	1.016840e+002	-1.043442e-001	-3.058664e+000
	-2.382468e+001	1.689943e+002	-4.748547e+001	8.194570e+001	-1.019922e-001	-2.967574e+000	-3.381651e+001	1.053382e+002
90000000	-4.044590e+001	1.426808e+002	-1.060791e-001	-2.619211e+000	-5.088777e+001	1.321980e+002	-2.382727e+001	1.680912e+002
	-1.036404e-001	-2.559138e+000	-4.278802e+001	1.177012e+002	-2.400240e+001	3.189616e+000	-4.691339e+001	8.045918e+001
	-5.076481e+001	1.293678e+002	-2.399751e+001	3.171197e+000	-3.430366e+001	1.016849e+002	-9.842700e-002	-3.228408e+000
	-2.382895e+001	1.682563e+002	-4.705911e+001	8.257042e+001	-1.072110e-001	-3.196842e+000	-3.385865e+001	1.044503e+002
95000000	-4.080951e+001	1.464441e+002	-1.059030e-001	-2.684769e+000	-5.075379e+001	1.326727e+002	-2.385006e+001	1.674206e+002
	-1.138575e-001	-2.762383e+000	-4.373336e+001	1.190541e+002	-2.399216e+001	3.254048e+000	-4.649276e+001	8.100651e+001
	-5.066431e+001	1.312417e+002	-2.401206e+001	3.327389e+000	-3.434803e+001	1.007907e+002	-1.165381e-001	-3.545736e+000
	-2.384492e+001	1.674008e+002	-4.662753e+001	8.141358e+001	-1.117035e-001	-3.471404e+000	-3.388597e+001	1.039647e+002
100000000	-4.119424e+001	1.495621e+002	-9.486002e-002	-2.982406e+000	-5.052293e+001	1.311187e+002	-2.384331e+001	1.667479e+002
	-1.048038e-001	-2.938520e+000	-4.471427e+001	1.228451e+002	-2.401727e+001	3.384855e+000	-4.631932e+001	8.149562e+001
	-5.038140e+001	1.307600e+002	-2.399046e+001	3.399375e+000	-3.438946e+001	1.003097e+002	-1.239734e-001	-3.765781e+000
	-2.385011e+001	1.668194e+002	-4.632141e+001	8.248115e+001	-1.135240e-001	-3.737718e+000	-3.390944e+001	1.037570e+002
105000000	-4.150205e+001	1.542027e+002	-1.346373e-001	-3.148165e+000	-5.024023e+001	1.305914e+002	-2.384899e+001	1.661849e+002
	-9.797076e-002	-3.063293e+000	-4.565635e+001	1.237421e+002	-2.401746e+001	3.370307e+000	-4.593114e+001	8.156249e+001
	-5.043519e+001	1.293729e+002	-2.401789e+001	3.479975e+000	-3.446881e+001	9.956104e+001	-1.319468e-001	-3.879848e+000
	-2.384406e+001	1.662017e+002	-4.598365e+001	8.201571e+001	-1.135888e-001	-3.938164e+000	-3.395944e+001	1.029507e+002
110000000	-4.166236e+001	1.575870e+002	-1.137680e-001	-3.358116e+000	-5.033275e+001	1.308374e+002	-2.384015e+001	1.655424e+002
	-1.165949e-001	-3.361797e+000	-4.685531e+001	1.264479e+002	-2.400369e+001	3.613301e+000	-4.572100e+001	8.115579e+001
	-5.026450e+001	1.291600e+002	-2.400884e+001	3.566194e+000	-3.443251e+001	9.900517e+001	-1.435065e-001	-4.107499e+000
	-2.385543e+001	1.654460e+002	-4.578317e+001	8.219483e+001	-1.158134e-001	-4.079411e+000	-3.393024e+001	1.019431e+002
115000000	-4.178557e+001	1.615496e+002	-1.216687e-001	-3.560824e+000	-4.977698e+001	1.305177e+002	-2.380305e+001	1.648782e+002
	-1.011810e-001	-3.648339e+000	-4.801566e+001	1.296056e+002	-2.402311e+001	3.528595e+000	-4.529984e+001	8.250417e+001
	-5.005937e+001	1.283006e+002	-2.402449e+001	3.665972e+000	-3.441441e+001	9.825479e+001	-1.178578e-001	-4.415020e+000
	-2.384856e+001	1.648449e+002	-4.536078e+001	8.217536e+001	-1.272707e-001	-4.347909e+000	-3.388067e+001	1.010036e+002
120000000	-4.208001e+001	1.659492e+002	-1.236633e-001	-3.784816e+000	-4.975363e+001	1.297563e+002	-2.384682e+001	1.642074e+002
	-9.430980e-002	-3.653710e+000	-4.926804e+001	1.338141e+002	-2.402106e+001	3.635277e+000	-4.490884e+001	8.166817e+001
	-4.971081e+001	1.285428e+002	-2.403653e+001	3.571856e+000	-3.437620e+001	9.719366e+001	-1.194848e-001	-4.579552e+000
	-2.382126e+001	1.642986e+002	-4.502942e+001	8.168491e+001	-1.308596e-001	-4.603227e+000	-3.392619e+001	9.991439e+001
125000000	-4.206591e+001	1.690353e+002	-7.288745e-002	-3.872163e+000	-4.966786e+001	1.273141e+002	-2.382308e+001	1.637222e+002
	-1.079087e-001	-3.927543e+000	-5.033342e+001	1.345913e+002	-2.403657e+001	3.757082e+000	-4.471994e+001	8.153531e+001
	-4.972389e+001	1.276170e+002	-2.399617e+001	3.810196e+000	-3.433999e+001	9.625248e+001	-1.268184e-001	-4.914317e+000
	-2.381575e+001	1.636727e+002	-4.474500e+001	8.216085e+001	-1.266267e-001	-4.821727e+000	-3.378756e+001	9.927677e+001
130000000	-4.212826e+001	1.725431e+002	-8.338234e-002	-4.063980e+000	-4.938202e+001	1.281661e+002	-2.382663e+001	1.629279e+002
	-1.145328e-001	-3.969963e+000	-5.160634e+001	1.393149e+002	-2.402627e+001	4.019333e+000	-4.448404e+001	8.159867e+001
	-4.937672e+001	1.270036e+002	-2.401026e+001	3.900205e+000	-3.434203e+001	9.517808e+001	-1.336554e-001	-5.139544e+000
	-2.383929e+001	1.629558e+002	-4.453391e+001	8.222037e+001	-1.422031e-001	-5.076482e+000	-3.377818e+001	9.764858e+001
135000000	-4.223524e+001	1.760183e+002	-9.892218e-002	-4.245289e+000	-4.907075e+001	1.277321e+002	-2.385427e+001	1.623589e+002
	-1.192266e-001	-4.355524e+000	-5.393312e+001	1.475751e+002	-2.403696e+001	4.092292e+000	-4.415667e+001	8.144246e+001
	-4.913401e+001	1.271936e+002	-2.400359e+001	4.193350e+000	-3.425788e+001	9.415079e+001	-1.292550e-001	-5.191248e+000
	-2.385522e+001	1.624247e+002	-4.410198e+001	8.182651e+001	-1.382946e-001	-5.302354e+000	-3.371483e+001	9.681288e+001
140000000	-4.227097e+001	1.787477e+002	-1.045754e-001	-4.487192e+000	-4.898215e+001	1.261390e+002	-2.384242e+001	1.615960e+002
	-1.145789e-001	-4.380050e+000	-5.606988e+001	1.537851e+002	-2.403596e+001	4.287300e+000	-4.394693e+001	8.134264e+001
	-4.896711e+001	1.265256e+002	-2.402935e+001	4.057176e+000	-3.409483e+001	9.369657e+001	-1.365674e-001	-5.394689e+000
	-2.383175e+001	1.617600e+002	-4.397005e+001	8.105797e+001	-1.164043e-001	-5.480649e+000	-3.362009e+001	9.573055e+001
145000000	-4.236513e+001	-1.786758e+002	-8.328866e-002	-4.584171e+000	-4.858652e+001	1.253183e+002	-2.380576e+001	1.608975e+002
	-1.151478e-001	-4.630293e+000	-5.780135e+001	1.699598e+002	-2.404031e+001	4.367553e+000	-4.360799e+001	8.150731e+001
	-4.863889e+001	1.249679e+002	-2.401103e+001	4.358238e+000	-3.409150e+001	9.222885e+001	-1.202108e-001	-5.781352e+000
	-2.383183e+001	1.611917e+002	-4.362381e+001	8.170210e+001	-1.391540e-001	-5.762255e+000	-3.359345e+001	9.492167e+001
150000000	-4.230327e+001	-1.748447e+002	-1.189372e-001	-4.773179e+000	-4.865563e+001	1.243424e+002	-2.382900e+001	1.603640e+002
	-1.171267e-001	-4.803362e+000	-5.907881e+001	-1.703579e+002	-2.405214e+001	4.398850e+000	-4.332044e+001	8.166542e+001
	-4.851997e+001	1.239831e+002	-2.405547e+001	4.386932e+000	-3.401108e+001	9.152890e+001	-1.280760e-001	-5.959399e+000
	-2.382021e+001	1.604870e+002	-4.355152e+001	8.142473e+001	-1.383409e-001	-5.917667e+000	-3.351442e+001	9.325080e+001
155000000	-4.211139e+001	-1.726489e+002	-1.077717e-001	-4.968058e+000	-4.837428e+001	1.235985e+002	-2.383791e+001	1.597694e+002
	-1.264523e-001	-5.086215e+000	-5.991158e+001	-1.393565e+002	-2.404928e+001	4.579625e+000	-4.314020e+001	8.151294e+001
	-4.823213e+001	1.222613e+002	-2.403028e+001	4.589128e+000	-3.389755e+001	9.044889e+001	-1.400297e-001	-6.216740e+000
	-2.383187e+001	1.598260e+002	-4.329249e+001	8.133389e+001	-1.434102e-001	-6.197461e+000	-3.342101e+001	9.204237e+001
160000000	-4.205807e+001	-1.696137e+002	-1.315552e-001	-5.084023e+000	-4.820915e+001	1.228064e+002	-2.382218e+001	1.591131e+002
	-1.227315e-001	-5.188251e+000	-5.829946e+001	-1.197822e+002	-2.405592e+001	4.683088e+000	-4.281333e+001	8.096747e+001
	-4.814427e+001	1.217526e+002	-2.406421e+001	4.531436e+000	-3.384587e+001	8.947537e+001	-1.330318e-001	-6.458372e+000
	-2.382846e+001	1.592540e+002	-4.292322e+001	8.202278e+001	-1.326772e-001	-6.361671e+000	-3.336762e+001	9.107839e+001
165000000	-4.208667e+001	-1.668279e+002	-1.064139e-001	-5.260340e+000	-4.807133e+001	1.221649e+002	-2.381746e+001	1.583411e+002
	-1.167973e-001	-5.232942e+000	-5.644821e+001	-1.062243e+002	-2.405172e+001	4.784512e+000	-4.272500e+001	8.098517e+001
	-4.798808e+001	1.198633e+002	-2.404812e+001	4.886608e+000	-3.373790e+001	8.860866e+001	-1.453261e-001	-6.535051e+000
	-2.383203e+001	1.586218e+002	-4.279041e+001	8.197365e+001	-1.246672e-001	-6.625876e+000	-3.328205e+001	8.977168e+001
170000000	-4.185031e+001	-1.633268e+002	-1.425537e-001	-5.466787e+000	-4.783016e+001	1.213793e+002	-2.382496e+001	1.576962e+002
	-1.194644e-001	-5.528882e+000	-5.443701e+001	-9.742109e+001	-2.407546e+001	5.117043e+000	-4.248944e+001	8.140874e+001
	-4.781056e+001	1.199264e+002	-2.406761e+001	5.083920e+000	-3.370938e+001	8.777726e+001	-1.390891e-001	-6.853917e+000
	-2.384719e+001	1.579154e+002	-4.251955e+001	8.176293e+001	-1.147541e-001	-6.624765e+000	-3.320968e+001	8.833240e+001
175000000	-4.185352e+001	-1.606161e+002	-1.258770e-001	-5.597464e+000	-4.768628e+001	1.200869e+002	-2.386639e+001	1.572271e+002
	-1.077528e-001	-5.812281e+000	-5.261174e+001	-9.126394e+001	-2.405996e+001	5.233956e+000	-4.216908e+001	8.111566e+001
	-4.760270e+001	1.194152e+002	-2.405637e+001	5.164046e+000	-3.357399e+001	8.690248e+001	-1.599376e-001	-6.835133e+000
	-2.382903e+001	1.572468e+002	-4.234264e+001	8.160058e+001	-1.343186e-001	-6.910889e+000	-3.312759e+001	8.755273e+001
180000000	-4.160598e+001	-1.588216e+002	-1.364639e-001	-5.974428e+000	-4.746213e+001	1.194348e+002	-2.381766e+001	1.567205e+002
	-1.165336e-001	-5.806865e+000	-5.116535e+001	-8.741274e+001	-2.406448e+001	5.320775e+000	-4.195682e+001	8.081722e+001
	-4.736125e+001	1.182477e+002	-2.408724e+001	5.274479e+000	-3.348391e+001	8.626864e+001	-1.651117e-001	-7.247219e+000
	-2.382774e+001	1.566636e+002	-4.208849e+001	8.142229e+001	-1.365587e-001	-7.028946e+000	-3.298425e+001	8.641098e+001
185000000	-4.152774e+001	-1.560639e+002	-9.590925e-002	-5.930340e+000	-4.734169e+001	1.195929e+002	-2.380485e+001	1.559646e+002
	-1.280877e-001	-6.072408e+000	-4.963878e+001	-8.131207e+001	-2.408332e+001	5.316192e+000	-4.171606e+001	8.115200e+001
	-4.706155e+001	1.181325e+002	-2.405499e+001	5.501346e+000	-3.342830e+001	8.529545e+001	-1.376912e-001	-7.421674e+000
	-2.383591e+001	1.558329e+002	-4.182315e+001	8.115176e+001	-1.454142e-001	-7.457453e+000	-3.294998e+001	8.491614e+001
190000000	-4.129995e+001	-1.533636e+002	-1.103894e-001	-6.207571e+000	-4.705045e+001	1.175439e+002	-2.381484e+001	1.554004e+002
	-1.052899e-001	-6.206250e+000	-4.861294e+001	-8.207506e+001	-2.407984e+001	5.365793e+000	-4.161403e+001	8.155534e+001
	-4.683210e+001	1.172903e+002	-2.408189e+001	5.462397e+000	-3.333146e+001	8.452410e+001	-1.414203e-001	-7.691749e+000
	-2.379428e+001	1.553468e+002	-4.164984e+001	8.170150e+001	-1.489256e-001	-7.713993e+000	-3.287365e+001	8.422729e+001
195000000	-4.125606e+001	-1.510063e+002	-1.273269e-001	-6.347417e+000	-4.690370e+001	1.176646e+002	-2.381184e+001	1.547439e+002
	-1.181599e-001	-6.379184e+000	-4.760801e+001	-8.011304e+001	-2.408424e+001	5.648389e+000	-4.137940e+001	8.154660e+001
	-4.667744e+001	1.166019e+002	-2.407352e+001	5.784860e+000	-3.325585e+001	8.354767e+001	-1.468248e-001	-7.857650e+000
	-2.379730e+001	1.547460e+002	-4.151611e+001	8.163995e+001	-1.502617e-001	-7.817106e+000	-3.276899e+001	8.315086e+001
200000000	-4.096496e+001	-1.481577e+002	-1.020289e-001	-6.532484e+000	-4.685984e+001	1.160672e+002	-2.380597e+001	1.540811e+002
	-1.188547e-001	-6.520141e+000	-4.661427e+001	-7.844546e+001	-2.408516e+001	5.751963e+000	-4.122876e+001	8.134034e+001
	-4.658143e+001	1.160628e+002	-2.405512e+001	5.929178e+000	-3.319718e+001	8.233765e+001	-1.582094e-001	-8.144891e+000
	-2.380242e+001	1.541421e+002	-4.128588e+001	8.114501e+001	-1.534653e-001	-7.970782e+000	-3.274241e+001	8.219620e+001
