!Agilent Technologies,E5071B,JP1KK00267,A.09.10
!Date: Fri Sep 22 11:03:05 2017
!Data & Calibration Information:
!Freq	S11:SOLT4(ON)	S12:SOLT4(ON)	S13:SOLT4(ON)	S14:SOLT4(ON)
!	S21:SOLT4(ON)	S22:SOLT4(ON)	S23:SOLT4(ON)	S24:SOLT4(ON)
!	S31:SOLT4(ON)	S32:SOLT4(ON)	S33:SOLT4(ON)	S34:SOLT4(ON)
!	S41:SOLT4(ON)	S42:SOLT4(ON)	S43:SOLT4(ON)	S44:SOLT4(ON)
! "David Morgan-soldered to Test PCB SM1, calibration OSLT PCB 1000029771 Edge launch SMA connectors, port 1-pin1,port 2-pin6,port 3-pin4, port 4-pin3 ENA E5071B"
# Hz S dB R 50
5000000	-1.351533e+001	1.031235e+002	-2.373111e-001	1.205451e+001	-3.722140e+001	1.244540e+002	-2.366312e+001	-1.791464e+002
	-2.377147e-001	1.203759e+001	-1.344488e+001	1.020500e+002	-2.440473e+001	2.499354e+001	-3.788276e+001	1.066434e+002
	-3.724061e+001	1.246296e+002	-2.442649e+001	2.493866e+001	-1.339133e+001	1.022606e+002	-2.410019e-001	1.200539e+001
	-2.363289e+001	-1.790943e+002	-3.784529e+001	1.067628e+002	-2.490457e-001	1.201521e+001	-1.349318e+001	1.027117e+002
10000000	-1.942239e+001	9.723670e+001	-9.799811e-002	5.716689e+000	-4.237066e+001	1.204151e+002	-2.388032e+001	1.792184e+002
	-6.966307e-002	5.689477e+000	-1.933880e+001	9.489853e+001	-2.407165e+001	1.284911e+001	-4.311103e+001	8.633328e+001
	-4.238417e+001	1.198748e+002	-2.408653e+001	1.270328e+001	-1.925689e+001	9.558943e+001	-8.534453e-002	5.677918e+000
	-2.387215e+001	1.792430e+002	-4.309268e+001	8.665524e+001	-6.422653e-002	5.700441e+000	-1.934886e+001	9.655563e+001
15000000	-2.310223e+001	9.567523e+001	-5.183892e-002	3.634209e+000	-4.534082e+001	1.233155e+002	-2.391125e+001	1.785168e+002
	-4.852876e-002	3.555863e+000	-2.303936e+001	9.194478e+001	-2.399295e+001	8.721085e+000	-4.593464e+001	7.567150e+001
	-4.510718e+001	1.235672e+002	-2.401303e+001	8.853353e+000	-2.279868e+001	9.268067e+001	-5.922383e-002	3.461479e+000
	-2.390247e+001	1.784160e+002	-4.599477e+001	7.604078e+001	-5.232435e-002	3.365555e+000	-2.288648e+001	9.473720e+001
20000000	-2.587488e+001	9.514504e+001	-5.196849e-002	2.149316e+000	-4.715293e+001	1.267852e+002	-2.391912e+001	1.778646e+002
	-2.578078e-002	2.264035e+000	-2.580631e+001	9.019722e+001	-2.394467e+001	6.646591e+000	-4.795933e+001	6.960217e+001
	-4.711149e+001	1.254630e+002	-2.398528e+001	6.578038e+000	-2.539611e+001	9.151332e+001	-2.629569e-002	2.035809e+000
	-2.391199e+001	1.777898e+002	-4.778871e+001	7.016036e+001	-2.464136e-002	2.097392e+000	-2.547426e+001	9.389741e+001
25000000	-2.823489e+001	9.622205e+001	-3.910387e-002	1.434738e+000	-4.845843e+001	1.310337e+002	-2.387525e+001	1.772462e+002
	-1.188224e-002	1.508774e+000	-2.815103e+001	8.979832e+001	-2.396070e+001	5.423624e+000	-4.886750e+001	6.544136e+001
	-4.860114e+001	1.306944e+002	-2.396844e+001	5.627081e+000	-2.749758e+001	9.116623e+001	-3.822147e-002	1.125590e+000
	-2.387481e+001	1.770590e+002	-4.902745e+001	6.611600e+001	-2.087633e-002	1.104264e+000	-2.758294e+001	9.450462e+001
30000000	-3.020232e+001	9.837905e+001	-6.028425e-002	7.122102e-001	-4.948491e+001	1.342935e+002	-2.388463e+001	1.765056e+002
	-3.624200e-002	8.019811e-001	-3.021836e+001	9.038442e+001	-2.395870e+001	4.475209e+000	-4.987812e+001	6.577400e+001
	-4.948919e+001	1.330345e+002	-2.397274e+001	4.486460e+000	-2.917529e+001	9.216223e+001	-5.650872e-002	5.144681e-001
	-2.389913e+001	1.764774e+002	-5.022016e+001	6.404979e+001	-7.029481e-002	4.648017e-001	-2.921002e+001	9.644341e+001
35000000	-3.187802e+001	1.021407e+002	-4.839321e-002	3.620938e-001	-5.027046e+001	1.403331e+002	-2.386654e+001	1.759905e+002
	-4.915957e-002	4.148848e-001	-3.199044e+001	9.216851e+001	-2.394265e+001	3.912504e+000	-5.020572e+001	6.734476e+001
	-4.980553e+001	1.374390e+002	-2.394387e+001	3.849549e+000	-3.056217e+001	9.418888e+001	-7.176551e-002	-8.065569e-002
	-2.388054e+001	1.758070e+002	-5.035037e+001	6.308882e+001	-6.545487e-002	-6.859776e-002	-3.051127e+001	9.882971e+001
40000000	-3.327301e+001	1.056460e+002	-7.056699e-002	-1.618984e-001	-5.044615e+001	1.422500e+002	-2.386188e+001	1.751685e+002
	-5.596724e-002	1.169743e-002	-3.349461e+001	9.424682e+001	-2.395527e+001	3.486111e+000	-5.031652e+001	6.739902e+001
	-5.049706e+001	1.396240e+002	-2.396957e+001	3.339047e+000	-3.157677e+001	9.588619e+001	-6.631619e-002	-6.014175e-001
	-2.385320e+001	1.750892e+002	-5.070362e+001	6.576766e+001	-7.308708e-002	-5.796945e-001	-3.147802e+001	1.014062e+002
45000000	-3.450224e+001	1.098406e+002	-7.155667e-002	-4.588003e-001	-5.078420e+001	1.415487e+002	-2.387840e+001	1.744110e+002
	-7.533962e-002	-4.330445e-001	-3.477031e+001	9.711291e+001	-2.396806e+001	3.166556e+000	-5.016981e+001	6.781729e+001
	-5.085896e+001	1.420639e+002	-2.395782e+001	3.131338e+000	-3.236651e+001	9.747782e+001	-9.222608e-002	-9.211753e-001
	-2.387026e+001	1.743439e+002	-5.016546e+001	6.744075e+001	-7.065739e-002	-9.527414e-001	-3.215062e+001	1.030836e+002
50000000	-3.556957e+001	1.141261e+002	-9.255894e-002	-7.605780e-001	-5.110875e+001	1.475773e+002	-2.387239e+001	1.736697e+002
	-8.122462e-002	-6.879353e-001	-3.595874e+001	9.976897e+001	-2.397295e+001	2.858639e+000	-4.995977e+001	6.939887e+001
	-5.082237e+001	1.451430e+002	-2.398691e+001	2.936808e+000	-3.298004e+001	9.919748e+001	-1.014113e-001	-1.281310e+000
	-2.388240e+001	1.735864e+002	-5.007463e+001	6.799658e+001	-7.767745e-002	-1.305943e+000	-3.268532e+001	1.052556e+002
55000000	-3.638647e+001	1.176671e+002	-7.720726e-002	-1.038071e+000	-5.078732e+001	1.485738e+002	-2.387044e+001	1.729997e+002
	-9.140775e-002	-9.355322e-001	-3.699993e+001	1.029705e+002	-2.398725e+001	2.827304e+000	-4.978806e+001	7.048691e+001
	-5.081057e+001	1.465131e+002	-2.400164e+001	2.831042e+000	-3.347367e+001	1.000699e+002	-1.020392e-001	-1.684222e+000
	-2.387781e+001	1.729000e+002	-4.964954e+001	7.007156e+001	-8.434187e-002	-1.629816e+000	-3.308283e+001	1.065181e+002
60000000	-3.712395e+001	1.223419e+002	-9.360026e-002	-1.348202e+000	-5.118493e+001	1.499813e+002	-2.387601e+001	1.723297e+002
	-7.755084e-002	-1.161160e+000	-3.794792e+001	1.049715e+002	-2.399844e+001	2.583239e+000	-4.933811e+001	6.997409e+001
	-5.080051e+001	1.490366e+002	-2.400703e+001	2.554343e+000	-3.382632e+001	1.007194e+002	-9.342951e-002	-1.886632e+000
	-2.388090e+001	1.722143e+002	-4.935735e+001	7.146484e+001	-1.047273e-001	-1.958917e+000	-3.345198e+001	1.073293e+002
65000000	-3.782613e+001	1.259256e+002	-5.972585e-002	-1.499471e+000	-5.097945e+001	1.514885e+002	-2.386971e+001	1.716812e+002
	-7.502274e-002	-1.434118e+000	-3.886008e+001	1.085349e+002	-2.402473e+001	2.486623e+000	-4.903621e+001	7.074444e+001
	-5.092225e+001	1.507906e+002	-2.400102e+001	2.476866e+000	-3.419724e+001	1.010971e+002	-1.352226e-001	-2.252022e+000
	-2.385171e+001	1.715631e+002	-4.908407e+001	7.113567e+001	-1.005374e-001	-2.278047e+000	-3.367444e+001	1.078497e+002
70000000	-3.848775e+001	1.302049e+002	-8.779092e-002	-1.640654e+000	-5.081587e+001	1.526236e+002	-2.388625e+001	1.708251e+002
	-9.918034e-002	-1.753794e+000	-3.984084e+001	1.108687e+002	-2.402438e+001	2.525592e+000	-4.844106e+001	7.107570e+001
	-5.097120e+001	1.495694e+002	-2.401531e+001	2.613174e+000	-3.444766e+001	1.012701e+002	-8.022206e-002	-2.398878e+000
	-2.386899e+001	1.708664e+002	-4.876534e+001	7.191757e+001	-1.150461e-001	-2.501339e+000	-3.385371e+001	1.080941e+002
75000000	-3.908550e+001	1.336068e+002	-7.717282e-002	-1.727331e+000	-5.085179e+001	1.533296e+002	-2.389516e+001	1.702876e+002
	-1.017974e-001	-1.809508e+000	-4.077724e+001	1.130815e+002	-2.401986e+001	2.502732e+000	-4.814478e+001	7.203710e+001
	-5.076677e+001	1.512706e+002	-2.402640e+001	2.688914e+000	-3.463732e+001	1.011057e+002	-9.326160e-002	-2.800226e+000
	-2.390213e+001	1.703643e+002	-4.840665e+001	7.131759e+001	-1.188932e-001	-2.699341e+000	-3.395186e+001	1.080917e+002
80000000	-3.958710e+001	1.382057e+002	-9.556140e-002	-2.044663e+000	-5.055702e+001	1.542333e+002	-2.388017e+001	1.695571e+002
	-1.207241e-001	-2.179628e+000	-4.167398e+001	1.159781e+002	-2.403194e+001	2.490358e+000	-4.764069e+001	7.262648e+001
	-5.055309e+001	1.512367e+002	-2.401519e+001	2.583786e+000	-3.477819e+001	1.006168e+002	-1.184889e-001	-2.770258e+000
	-2.391127e+001	1.695675e+002	-4.785412e+001	7.170684e+001	-1.089640e-001	-3.151308e+000	-3.408432e+001	1.079677e+002
85000000	-4.013892e+001	1.417473e+002	-9.772577e-002	-2.248589e+000	-5.035695e+001	1.525453e+002	-2.388400e+001	1.689531e+002
	-9.109273e-002	-2.345881e+000	-4.254460e+001	1.177898e+002	-2.405410e+001	2.548116e+000	-4.731716e+001	7.169706e+001
	-5.046469e+001	1.530712e+002	-2.406205e+001	2.591686e+000	-3.497749e+001	1.000247e+002	-9.746538e-002	-3.228688e+000
	-2.388014e+001	1.689341e+002	-4.756440e+001	7.305079e+001	-9.743862e-002	-3.208540e+000	-3.417626e+001	1.073545e+002
90000000	-4.049582e+001	1.470642e+002	-9.486478e-002	-2.448047e+000	-5.058064e+001	1.525227e+002	-2.390720e+001	1.683410e+002
	-9.815407e-002	-2.500626e+000	-4.351819e+001	1.215154e+002	-2.406298e+001	2.600739e+000	-4.706460e+001	7.234988e+001
	-5.043574e+001	1.520342e+002	-2.405697e+001	2.571748e+000	-3.498550e+001	9.991288e+001	-1.051590e-001	-3.470244e+000
	-2.389940e+001	1.683022e+002	-4.711115e+001	7.285733e+001	-1.088712e-001	-3.525874e+000	-3.426683e+001	1.069999e+002
95000000	-4.092444e+001	1.514226e+002	-1.046087e-001	-2.630539e+000	-5.038528e+001	1.535953e+002	-2.391565e+001	1.676068e+002
	-1.006540e-001	-2.684153e+000	-4.451826e+001	1.258243e+002	-2.406775e+001	2.630593e+000	-4.675485e+001	7.231671e+001
	-5.030112e+001	1.530058e+002	-2.408112e+001	2.506753e+000	-3.510554e+001	9.859827e+001	-1.222225e-001	-3.754755e+000
	-2.389882e+001	1.675594e+002	-4.688463e+001	7.287946e+001	-1.184087e-001	-3.723109e+000	-3.431047e+001	1.068742e+002
100000000	-4.122862e+001	1.552351e+002	-9.398310e-002	-2.897308e+000	-5.004331e+001	1.534565e+002	-2.390430e+001	1.669355e+002
	-1.056790e-001	-2.813825e+000	-4.562543e+001	1.284915e+002	-2.406654e+001	2.745884e+000	-4.635147e+001	7.344936e+001
	-5.020602e+001	1.532457e+002	-2.407655e+001	2.597413e+000	-3.512645e+001	9.769366e+001	-1.258901e-001	-4.023129e+000
	-2.391149e+001	1.670442e+002	-4.657358e+001	7.293751e+001	-1.115777e-001	-4.022726e+000	-3.435431e+001	1.062620e+002
105000000	-4.142557e+001	1.593804e+002	-1.178201e-001	-3.044919e+000	-4.973780e+001	1.540266e+002	-2.391647e+001	1.663503e+002
	-9.530498e-002	-2.982090e+000	-4.688578e+001	1.333182e+002	-2.410367e+001	2.616732e+000	-4.610327e+001	7.257591e+001
	-4.991468e+001	1.533872e+002	-2.408162e+001	2.684496e+000	-3.529926e+001	9.668988e+001	-1.364649e-001	-4.121300e+000
	-2.392842e+001	1.663118e+002	-4.606860e+001	7.308544e+001	-1.173421e-001	-4.243547e+000	-3.437613e+001	1.055101e+002
110000000	-4.157066e+001	1.638333e+002	-1.067279e-001	-3.311593e+000	-4.983736e+001	1.521980e+002	-2.392666e+001	1.655836e+002
	-9.288334e-002	-3.279305e+000	-4.798447e+001	1.392808e+002	-2.409243e+001	2.843265e+000	-4.572513e+001	7.250449e+001
	-4.964188e+001	1.524003e+002	-2.410684e+001	2.659967e+000	-3.527574e+001	9.571468e+001	-1.580860e-001	-4.419018e+000
	-2.390068e+001	1.655729e+002	-4.580155e+001	7.266282e+001	-1.227077e-001	-4.363925e+000	-3.438173e+001	1.045701e+002
115000000	-4.167000e+001	1.685807e+002	-1.018380e-001	-3.398366e+000	-4.961305e+001	1.530399e+002	-2.389863e+001	1.651610e+002
	-9.996749e-002	-3.446072e+000	-4.940034e+001	1.443076e+002	-2.412501e+001	2.678373e+000	-4.551012e+001	7.205454e+001
	-4.968588e+001	1.527947e+002	-2.410348e+001	2.838568e+000	-3.531189e+001	9.421581e+001	-1.420374e-001	-4.720768e+000
	-2.390353e+001	1.651023e+002	-4.554092e+001	7.326979e+001	-1.413897e-001	-4.737502e+000	-3.436607e+001	1.038809e+002
120000000	-4.179373e+001	1.728017e+002	-1.100618e-001	-3.675441e+000	-4.938249e+001	1.515260e+002	-2.393593e+001	1.642380e+002
	-8.896395e-002	-3.546012e+000	-5.066445e+001	1.523972e+002	-2.414253e+001	2.669976e+000	-4.516967e+001	7.333826e+001
	-4.956786e+001	1.517320e+002	-2.410674e+001	2.712129e+000	-3.530916e+001	9.290469e+001	-1.364581e-001	-4.942511e+000
	-2.389966e+001	1.643802e+002	-4.522423e+001	7.335775e+001	-1.507758e-001	-5.065023e+000	-3.436269e+001	1.030119e+002
125000000	-4.162356e+001	1.758911e+002	-8.107198e-002	-3.685083e+000	-4.922598e+001	1.509987e+002	-2.391731e+001	1.636747e+002
	-1.030593e-001	-3.709914e+000	-5.190178e+001	1.610701e+002	-2.412772e+001	2.799358e+000	-4.500372e+001	7.302678e+001
	-4.941323e+001	1.515300e+002	-2.409890e+001	2.989750e+000	-3.525324e+001	9.150548e+001	-1.306176e-001	-5.392178e+000
	-2.389445e+001	1.637501e+002	-4.488017e+001	7.332084e+001	-1.322310e-001	-5.215865e+000	-3.425259e+001	1.021792e+002
130000000	-4.175516e+001	1.797820e+002	-8.138038e-002	-3.875172e+000	-4.893618e+001	1.505263e+002	-2.392297e+001	1.630517e+002
	-1.115460e-001	-3.885115e+000	-5.272026e+001	1.703157e+002	-2.413180e+001	3.024841e+000	-4.477147e+001	7.343998e+001
	-4.910566e+001	1.517751e+002	-2.410713e+001	2.953800e+000	-3.527073e+001	9.001394e+001	-1.405762e-001	-5.467580e+000
	-2.390619e+001	1.630525e+002	-4.461874e+001	7.286738e+001	-1.539037e-001	-5.492800e+000	-3.429063e+001	1.011172e+002
135000000	-4.168735e+001	-1.762620e+002	-1.175670e-001	-4.128792e+000	-4.882535e+001	1.505185e+002	-2.392101e+001	1.626652e+002
	-1.058140e-001	-4.120224e+000	-5.420725e+001	-1.737648e+002	-2.411789e+001	3.107444e+000	-4.449028e+001	7.323606e+001
	-4.894096e+001	1.502456e+002	-2.412956e+001	3.155626e+000	-3.519437e+001	8.861668e+001	-1.220061e-001	-5.598945e+000
	-2.392577e+001	1.625767e+002	-4.445898e+001	7.335638e+001	-1.282294e-001	-5.710317e+000	-3.418736e+001	1.002454e+002
140000000	-4.170485e+001	-1.741740e+002	-9.534035e-002	-4.306817e+000	-4.878319e+001	1.497950e+002	-2.393238e+001	1.618887e+002
	-1.003891e-001	-4.176942e+000	-5.433245e+001	-1.596412e+002	-2.412253e+001	3.211867e+000	-4.426200e+001	7.288801e+001
	-4.885348e+001	1.502152e+002	-2.412834e+001	3.134014e+000	-3.509046e+001	8.742920e+001	-1.392618e-001	-5.782062e+000
	-2.391834e+001	1.618375e+002	-4.416517e+001	7.317081e+001	-1.152361e-001	-5.860202e+000	-3.417157e+001	9.915521e+001
145000000	-4.171488e+001	-1.706386e+002	-1.034517e-001	-4.480926e+000	-4.855592e+001	1.498630e+002	-2.390791e+001	1.611653e+002
	-1.069306e-001	-4.488724e+000	-5.421809e+001	-1.392122e+002	-2.414866e+001	3.271682e+000	-4.392987e+001	7.360519e+001
	-4.853884e+001	1.492488e+002	-2.414370e+001	3.272829e+000	-3.509405e+001	8.551905e+001	-1.231394e-001	-6.122648e+000
	-2.392963e+001	1.611565e+002	-4.401281e+001	7.386317e+001	-1.414328e-001	-6.147254e+000	-3.411166e+001	9.861434e+001
150000000	-4.149290e+001	-1.678634e+002	-9.920235e-002	-4.586615e+000	-4.852179e+001	1.485630e+002	-2.391547e+001	1.605117e+002
	-1.160857e-001	-4.715909e+000	-5.331655e+001	-1.291772e+002	-2.415510e+001	3.338614e+000	-4.369649e+001	7.323634e+001
	-4.837439e+001	1.472150e+002	-2.415447e+001	3.428124e+000	-3.507204e+001	8.458249e+001	-1.301336e-001	-6.327318e+000
	-2.391950e+001	1.605958e+002	-4.374626e+001	7.355388e+001	-1.431718e-001	-6.338091e+000	-3.406363e+001	9.729479e+001
155000000	-4.146658e+001	-1.660423e+002	-1.083758e-001	-4.810533e+000	-4.830274e+001	1.478465e+002	-2.393263e+001	1.598644e+002
	-1.168221e-001	-4.873403e+000	-5.269344e+001	-1.161748e+002	-2.415260e+001	3.485559e+000	-4.351221e+001	7.337496e+001
	-4.841982e+001	1.490600e+002	-2.415346e+001	3.475142e+000	-3.491183e+001	8.283171e+001	-1.351119e-001	-6.670875e+000
	-2.391796e+001	1.599404e+002	-4.344828e+001	7.287482e+001	-1.470853e-001	-6.640175e+000	-3.400008e+001	9.642695e+001
160000000	-4.124215e+001	-1.623528e+002	-1.217273e-001	-4.916923e+000	-4.826646e+001	1.467650e+002	-2.393431e+001	1.593865e+002
	-1.138068e-001	-5.178477e+000	-5.125108e+001	-1.060647e+002	-2.415951e+001	3.559224e+000	-4.333043e+001	7.290594e+001
	-4.811440e+001	1.485336e+002	-2.416804e+001	3.504230e+000	-3.490459e+001	8.171632e+001	-1.432469e-001	-6.807728e+000
	-2.392743e+001	1.592673e+002	-4.328055e+001	7.332953e+001	-1.377793e-001	-6.819816e+000	-3.402199e+001	9.528378e+001
165000000	-4.117570e+001	-1.600482e+002	-1.218517e-001	-5.132888e+000	-4.801825e+001	1.474812e+002	-2.391590e+001	1.586862e+002
	-1.103727e-001	-5.178084e+000	-5.049921e+001	-1.016842e+002	-2.415355e+001	3.827111e+000	-4.304208e+001	7.294849e+001
	-4.804478e+001	1.461507e+002	-2.417872e+001	3.741499e+000	-3.480739e+001	8.041123e+001	-1.536335e-001	-6.869961e+000
	-2.392837e+001	1.586655e+002	-4.304838e+001	7.328631e+001	-1.326618e-001	-7.033489e+000	-3.389250e+001	9.416163e+001
170000000	-4.093213e+001	-1.573945e+002	-1.268173e-001	-5.416062e+000	-4.779543e+001	1.461640e+002	-2.393430e+001	1.581627e+002
	-9.607511e-002	-5.463702e+000	-4.917402e+001	-9.733431e+001	-2.420107e+001	3.926073e+000	-4.282660e+001	7.310592e+001
	-4.777621e+001	1.463960e+002	-2.418366e+001	3.861850e+000	-3.477685e+001	7.852266e+001	-1.387204e-001	-7.110204e+000
	-2.392287e+001	1.580776e+002	-4.271440e+001	7.335966e+001	-1.236163e-001	-7.230037e+000	-3.384160e+001	9.300882e+001
175000000	-4.083887e+001	-1.550314e+002	-1.320574e-001	-5.448376e+000	-4.765529e+001	1.449827e+002	-2.395532e+001	1.573940e+002
	-8.312097e-002	-5.630090e+000	-4.827828e+001	-9.386407e+001	-2.419360e+001	3.976844e+000	-4.261910e+001	7.360516e+001
	-4.758785e+001	1.458292e+002	-2.419635e+001	3.925143e+000	-3.463955e+001	7.719524e+001	-1.515754e-001	-7.315052e+000
	-2.392271e+001	1.574592e+002	-4.256578e+001	7.277528e+001	-1.439283e-001	-7.384928e+000	-3.377568e+001	9.229365e+001
180000000	-4.073742e+001	-1.535646e+002	-1.141353e-001	-5.777862e+000	-4.768124e+001	1.447520e+002	-2.392773e+001	1.569901e+002
	-1.085512e-001	-5.642740e+000	-4.717237e+001	-8.992274e+001	-2.419200e+001	4.024424e+000	-4.236588e+001	7.298295e+001
	-4.744122e+001	1.450602e+002	-2.420405e+001	4.078443e+000	-3.458651e+001	7.592715e+001	-1.726710e-001	-7.644708e+000
	-2.391916e+001	1.568210e+002	-4.236880e+001	7.340388e+001	-1.439455e-001	-7.648029e+000	-3.371416e+001	9.134508e+001
185000000	-4.059858e+001	-1.509638e+002	-1.012096e-001	-5.797492e+000	-4.728793e+001	1.437828e+002	-2.393142e+001	1.560994e+002
	-1.162268e-001	-5.778963e+000	-4.634445e+001	-8.703601e+001	-2.420917e+001	4.220538e+000	-4.219881e+001	7.290823e+001
	-4.742173e+001	1.435360e+002	-2.420929e+001	4.166966e+000	-3.448619e+001	7.449956e+001	-1.435510e-001	-8.003805e+000
	-2.394096e+001	1.562990e+002	-4.229308e+001	7.329941e+001	-1.536036e-001	-7.922792e+000	-3.369598e+001	9.014384e+001
190000000	-4.024766e+001	-1.487802e+002	-9.955793e-002	-6.006126e+000	-4.712089e+001	1.440922e+002	-2.393922e+001	1.556803e+002
	-1.199339e-001	-6.039179e+000	-4.546560e+001	-8.740871e+001	-2.420483e+001	4.367786e+000	-4.211875e+001	7.277240e+001
	-4.718008e+001	1.428384e+002	-2.421024e+001	4.235716e+000	-3.434806e+001	7.306586e+001	-1.574324e-001	-8.200089e+000
	-2.393210e+001	1.555976e+002	-4.196938e+001	7.335233e+001	-1.592693e-001	-8.163418e+000	-3.364184e+001	8.930550e+001
195000000	-4.003903e+001	-1.471588e+002	-1.110260e-001	-6.196145e+000	-4.699978e+001	1.433322e+002	-2.393624e+001	1.549402e+002
	-1.134043e-001	-6.216499e+000	-4.483080e+001	-8.470323e+001	-2.422053e+001	4.452196e+000	-4.178372e+001	7.267602e+001
	-4.710519e+001	1.432740e+002	-2.421288e+001	4.492042e+000	-3.430889e+001	7.153972e+001	-1.603956e-001	-8.464638e+000
	-2.392039e+001	1.550023e+002	-4.176499e+001	7.349025e+001	-1.650916e-001	-8.359497e+000	-3.348565e+001	8.821318e+001
200000000	-3.982402e+001	-1.446051e+002	-1.001472e-001	-6.489950e+000	-4.684844e+001	1.431716e+002	-2.393478e+001	1.543988e+002
	-1.053901e-001	-6.335238e+000	-4.398030e+001	-8.248983e+001	-2.422736e+001	4.569396e+000	-4.168103e+001	7.315549e+001
	-4.680138e+001	1.426922e+002	-2.420598e+001	4.490503e+000	-3.419035e+001	6.990682e+001	-1.734365e-001	-8.620796e+000
	-2.391113e+001	1.544297e+002	-4.165467e+001	7.380020e+001	-1.652210e-001	-8.503298e+000	-3.340001e+001	8.795207e+001
