!Agilent Technologies,E5071B,JP1KK00267,A.09.10
!Date: Fri Sep 22 11:05:48 2017
!Data & Calibration Information:
!Freq	S11:SOLT4(ON)	S12:SOLT4(ON)	S13:SOLT4(ON)	S14:SOLT4(ON)
!	S21:SOLT4(ON)	S22:SOLT4(ON)	S23:SOLT4(ON)	S24:SOLT4(ON)
!	S31:SOLT4(ON)	S32:SOLT4(ON)	S33:SOLT4(ON)	S34:SOLT4(ON)
!	S41:SOLT4(ON)	S42:SOLT4(ON)	S43:SOLT4(ON)	S44:SOLT4(ON)
! "David Morgan-soldered to Test PCB SM1, calibration OSLT PCB 1000029771 Edge launch SMA connectors, port 1-pin1,port 2-pin6,port 3-pin4, port 4-pin3 ENA E5071B"
# Hz S dB R 50
5000000	-1.347991e+001	1.031276e+002	-2.426120e-001	1.207427e+001	-3.728154e+001	1.233848e+002	-2.354827e+001	-1.790507e+002
	-2.404977e-001	1.208250e+001	-1.342039e+001	1.019897e+002	-2.430624e+001	2.484105e+001	-3.774320e+001	1.083052e+002
	-3.728915e+001	1.234696e+002	-2.432241e+001	2.479234e+001	-1.327805e+001	1.025368e+002	-2.396678e-001	1.220799e+001
	-2.353925e+001	-1.790102e+002	-3.778519e+001	1.083970e+002	-2.425848e-001	1.215304e+001	-1.336083e+001	1.029010e+002
10000000	-1.936459e+001	9.738951e+001	-9.550868e-002	5.847812e+000	-4.249464e+001	1.176979e+002	-2.377152e+001	1.792208e+002
	-6.731651e-002	5.805767e+000	-1.930157e+001	9.483613e+001	-2.396805e+001	1.292414e+001	-4.299582e+001	8.943824e+001
	-4.248854e+001	1.181019e+002	-2.399106e+001	1.280269e+001	-1.910590e+001	9.576800e+001	-7.613132e-002	5.825617e+000
	-2.376261e+001	1.792767e+002	-4.299526e+001	8.980363e+001	-7.026995e-002	5.791847e+000	-1.920694e+001	9.678572e+001
15000000	-2.298100e+001	9.578760e+001	-4.787152e-002	3.495042e+000	-4.521421e+001	1.196473e+002	-2.379987e+001	1.784175e+002
	-3.631432e-002	3.618727e+000	-2.291544e+001	9.190528e+001	-2.390177e+001	8.832970e+000	-4.597272e+001	8.112660e+001
	-4.526436e+001	1.197662e+002	-2.391539e+001	8.716412e+000	-2.263516e+001	9.292721e+001	-6.055314e-002	3.482618e+000
	-2.378288e+001	1.785100e+002	-4.601733e+001	7.942915e+001	-5.302644e-002	3.535993e+000	-2.272810e+001	9.478029e+001
20000000	-2.566402e+001	9.514512e+001	-5.125062e-002	2.312891e+000	-4.721723e+001	1.220821e+002	-2.384390e+001	1.778317e+002
	-7.081831e-003	2.262583e+000	-2.557008e+001	9.029299e+001	-2.387114e+001	6.744855e+000	-4.764244e+001	7.554342e+001
	-4.697363e+001	1.218128e+002	-2.388793e+001	6.793995e+000	-2.524264e+001	9.160667e+001	-6.747543e-002	2.107429e+000
	-2.378759e+001	1.777732e+002	-4.775573e+001	7.437611e+001	-4.383222e-002	2.136358e+000	-2.532322e+001	9.371883e+001
25000000	-2.786607e+001	9.602651e+001	-3.937971e-002	1.411595e+000	-4.872844e+001	1.253405e+002	-2.380519e+001	1.773401e+002
	-1.902220e-002	1.631644e+000	-2.778903e+001	8.981749e+001	-2.387647e+001	5.540232e+000	-4.865893e+001	7.295025e+001
	-4.848615e+001	1.241113e+002	-2.387259e+001	5.669325e+000	-2.726503e+001	9.123725e+001	-6.359427e-002	1.255223e+000
	-2.376890e+001	1.771436e+002	-4.907664e+001	7.274274e+001	-3.233928e-002	1.198716e+000	-2.735980e+001	9.449614e+001
30000000	-2.967899e+001	9.816166e+001	-5.493359e-002	6.566754e-001	-4.910569e+001	1.274007e+002	-2.380989e+001	1.765455e+002
	-2.843148e-002	9.454163e-001	-2.961465e+001	9.038820e+001	-2.383933e+001	4.707764e+000	-4.940249e+001	7.146042e+001
	-4.924171e+001	1.269691e+002	-2.388513e+001	4.707699e+000	-2.890771e+001	9.218645e+001	-5.500459e-002	6.977822e-001
	-2.379192e+001	1.764362e+002	-4.978828e+001	6.966337e+001	-4.297732e-002	6.006560e-001	-2.899423e+001	9.607897e+001
35000000	-3.109287e+001	1.014843e+002	-5.803260e-002	4.620973e-001	-4.978741e+001	1.297850e+002	-2.378411e+001	1.759088e+002
	-4.780143e-002	4.825010e-001	-3.115181e+001	9.223913e+001	-2.385613e+001	4.301431e+000	-4.997405e+001	7.251172e+001
	-4.975981e+001	1.292124e+002	-2.386283e+001	4.310027e+000	-3.027651e+001	9.408137e+001	-7.386422e-002	5.620021e-002
	-2.378995e+001	1.756842e+002	-5.008113e+001	7.297007e+001	-6.203495e-002	6.186649e-002	-3.024613e+001	9.829129e+001
40000000	-3.227728e+001	1.044520e+002	-6.932135e-002	-8.253539e-002	-5.008287e+001	1.323580e+002	-2.377772e+001	1.748803e+002
	-8.159573e-002	1.428923e-002	-3.237668e+001	9.409089e+001	-2.386589e+001	4.082769e+000	-4.977255e+001	7.425235e+001
	-5.007809e+001	1.321278e+002	-2.388417e+001	3.761577e+000	-3.125070e+001	9.596499e+001	-7.325169e-002	-5.091427e-001
	-2.378684e+001	1.751730e+002	-4.994278e+001	7.367404e+001	-7.556599e-002	-2.937730e-001	-3.119821e+001	1.008064e+002
45000000	-3.318480e+001	1.077559e+002	-7.969160e-002	-3.643426e-001	-5.053024e+001	1.330117e+002	-2.379408e+001	1.744604e+002
	-7.528242e-002	-3.225344e-001	-3.337070e+001	9.629113e+001	-2.389159e+001	3.685863e+000	-4.986385e+001	7.375548e+001
	-5.037479e+001	1.331451e+002	-2.387524e+001	3.626087e+000	-3.205428e+001	9.770361e+001	-9.600688e-002	-7.349622e-001
	-2.378756e+001	1.743110e+002	-5.000073e+001	7.443074e+001	-7.308126e-002	-8.155633e-001	-3.188123e+001	1.027541e+002
50000000	-3.395946e+001	1.107024e+002	-8.648773e-002	-6.129147e-001	-5.041819e+001	1.329330e+002	-2.379763e+001	1.737070e+002
	-8.901401e-002	-5.104535e-001	-3.425982e+001	9.841915e+001	-2.387899e+001	3.472981e+000	-4.921668e+001	7.508641e+001
	-5.023920e+001	1.316837e+002	-2.389143e+001	3.597534e+000	-3.259517e+001	9.924824e+001	-1.164205e-001	-1.138258e+000
	-2.378696e+001	1.737837e+002	-4.954651e+001	7.569259e+001	-8.150832e-002	-1.140337e+000	-3.238046e+001	1.040514e+002
55000000	-3.459977e+001	1.129419e+002	-8.770092e-002	-8.581988e-001	-5.053399e+001	1.359297e+002	-2.377220e+001	1.730395e+002
	-8.925329e-002	-7.807373e-001	-3.489438e+001	1.003439e+002	-2.389993e+001	3.370761e+000	-4.903754e+001	7.553442e+001
	-5.053123e+001	1.343477e+002	-2.390325e+001	3.441683e+000	-3.305370e+001	1.000017e+002	-9.195799e-002	-1.419880e+000
	-2.376594e+001	1.729869e+002	-4.919889e+001	7.684354e+001	-9.017084e-002	-1.447402e+000	-3.277932e+001	1.055161e+002
60000000	-3.509841e+001	1.158076e+002	-1.124766e-001	-1.083541e+000	-5.059850e+001	1.344952e+002	-2.379355e+001	1.724107e+002
	-8.136491e-002	-1.005569e+000	-3.554056e+001	1.018059e+002	-2.390046e+001	3.365039e+000	-4.850164e+001	7.730691e+001
	-5.029510e+001	1.346668e+002	-2.392564e+001	3.423797e+000	-3.337921e+001	1.011151e+002	-1.045831e-001	-1.768107e+000
	-2.377835e+001	1.723363e+002	-4.871075e+001	7.720722e+001	-9.923478e-002	-1.643143e+000	-3.306920e+001	1.058971e+002
65000000	-3.556868e+001	1.176075e+002	-9.262177e-002	-1.288280e+000	-5.043542e+001	1.339230e+002	-2.378318e+001	1.716770e+002
	-8.356204e-002	-1.244829e+000	-3.597272e+001	1.032351e+002	-2.391997e+001	3.323476e+000	-4.819481e+001	7.771004e+001
	-5.012958e+001	1.346079e+002	-2.393615e+001	3.383047e+000	-3.364282e+001	1.013148e+002	-1.300756e-001	-2.030948e+000
	-2.378225e+001	1.716268e+002	-4.836380e+001	7.718748e+001	-9.747785e-002	-1.928132e+000	-3.329499e+001	1.065359e+002
70000000	-3.602391e+001	1.191441e+002	-8.350153e-002	-1.449134e+000	-5.033146e+001	1.352349e+002	-2.379503e+001	1.709528e+002
	-1.032069e-001	-1.537359e+000	-3.657232e+001	1.036965e+002	-2.391524e+001	3.346316e+000	-4.772358e+001	7.692493e+001
	-5.023658e+001	1.332356e+002	-2.391636e+001	3.519638e+000	-3.385205e+001	1.015177e+002	-8.415056e-002	-2.167107e+000
	-2.378873e+001	1.709977e+002	-4.796523e+001	7.811178e+001	-1.054352e-001	-2.272873e+000	-3.345726e+001	1.064712e+002
75000000	-3.633498e+001	1.207875e+002	-7.296811e-002	-1.515245e+000	-5.009701e+001	1.340614e+002	-2.382283e+001	1.703622e+002
	-1.038249e-001	-1.682260e+000	-3.702536e+001	1.047538e+002	-2.393345e+001	3.445967e+000	-4.734425e+001	7.858095e+001
	-5.019016e+001	1.328058e+002	-2.393295e+001	3.734900e+000	-3.403187e+001	1.018027e+002	-1.118567e-001	-2.533417e+000
	-2.380109e+001	1.703570e+002	-4.746771e+001	7.838249e+001	-1.274986e-001	-2.500543e+000	-3.354477e+001	1.064242e+002
80000000	-3.666745e+001	1.227735e+002	-9.472876e-002	-1.858617e+000	-4.984334e+001	1.338214e+002	-2.377904e+001	1.696393e+002
	-1.289795e-001	-1.938643e+000	-3.741500e+001	1.055350e+002	-2.394640e+001	3.513616e+000	-4.691377e+001	7.837648e+001
	-4.995902e+001	1.328802e+002	-2.392206e+001	3.559485e+000	-3.413269e+001	1.015104e+002	-1.032199e-001	-2.540695e+000
	-2.383071e+001	1.697694e+002	-4.714585e+001	7.822102e+001	-1.134216e-001	-2.872810e+000	-3.365651e+001	1.061556e+002
85000000	-3.696841e+001	1.232884e+002	-1.075468e-001	-2.077902e+000	-4.975494e+001	1.329568e+002	-2.380323e+001	1.690265e+002
	-1.009381e-001	-2.097446e+000	-3.771183e+001	1.058033e+002	-2.394676e+001	3.695763e+000	-4.654656e+001	7.844974e+001
	-4.993957e+001	1.327072e+002	-2.397280e+001	3.704296e+000	-3.424545e+001	1.011951e+002	-1.093982e-001	-2.978326e+000
	-2.379848e+001	1.690518e+002	-4.684766e+001	7.955620e+001	-9.497230e-002	-2.937514e+000	-3.374700e+001	1.055191e+002
90000000	-3.721995e+001	1.246596e+002	-1.095887e-001	-2.265838e+000	-4.969600e+001	1.327177e+002	-2.380780e+001	1.683818e+002
	-8.893451e-002	-2.210010e+000	-3.817312e+001	1.063273e+002	-2.395030e+001	3.698435e+000	-4.617837e+001	7.928541e+001
	-4.959459e+001	1.327642e+002	-2.395806e+001	3.706540e+000	-3.430418e+001	1.009608e+002	-1.005080e-001	-3.157833e+000
	-2.377842e+001	1.684630e+002	-4.624754e+001	7.933647e+001	-1.014052e-001	-3.241023e+000	-3.381853e+001	1.048441e+002
95000000	-3.743939e+001	1.260756e+002	-1.105572e-001	-2.364365e+000	-4.944124e+001	1.327446e+002	-2.380885e+001	1.677578e+002
	-1.096011e-001	-2.372079e+000	-3.851102e+001	1.060343e+002	-2.395922e+001	3.819400e+000	-4.588452e+001	7.904414e+001
	-4.940969e+001	1.316065e+002	-2.396966e+001	3.752153e+000	-3.430647e+001	1.002823e+002	-1.153090e-001	-3.414507e+000
	-2.380572e+001	1.677446e+002	-4.601812e+001	7.894616e+001	-1.125563e-001	-3.413013e+000	-3.384967e+001	1.040963e+002
100000000	-3.764803e+001	1.270429e+002	-1.055238e-001	-2.619032e+000	-4.936945e+001	1.332537e+002	-2.382303e+001	1.671309e+002
	-1.041334e-001	-2.624194e+000	-3.882202e+001	1.057787e+002	-2.396543e+001	4.048797e+000	-4.549488e+001	8.000415e+001
	-4.918850e+001	1.316375e+002	-2.396725e+001	3.962540e+000	-3.432238e+001	9.937836e+001	-1.283034e-001	-3.602034e+000
	-2.380075e+001	1.671613e+002	-4.551497e+001	7.960828e+001	-1.133832e-001	-3.660521e+000	-3.383891e+001	1.037190e+002
105000000	-3.781980e+001	1.279564e+002	-1.062009e-001	-2.611987e+000	-4.921700e+001	1.313643e+002	-2.381031e+001	1.664712e+002
	-9.562257e-002	-2.668215e+000	-3.905317e+001	1.054737e+002	-2.398065e+001	4.115018e+000	-4.516330e+001	7.929472e+001
	-4.909776e+001	1.300753e+002	-2.396003e+001	4.146880e+000	-3.437363e+001	9.863881e+001	-1.281602e-001	-3.789702e+000
	-2.381104e+001	1.664231e+002	-4.521184e+001	7.978241e+001	-1.182638e-001	-3.921446e+000	-3.387240e+001	1.030198e+002
110000000	-3.789200e+001	1.289141e+002	-1.139207e-001	-3.058700e+000	-4.896704e+001	1.295354e+002	-2.382189e+001	1.658685e+002
	-9.486070e-002	-2.965849e+000	-3.945079e+001	1.044299e+002	-2.397412e+001	4.193780e+000	-4.488952e+001	7.945338e+001
	-4.884572e+001	1.300678e+002	-2.398233e+001	4.044690e+000	-3.442117e+001	9.811177e+001	-1.547169e-001	-4.021686e+000
	-2.380594e+001	1.657886e+002	-4.486238e+001	8.063888e+001	-1.207010e-001	-4.004917e+000	-3.384193e+001	1.023345e+002
115000000	-3.806370e+001	1.297790e+002	-1.116812e-001	-3.164149e+000	-4.853106e+001	1.294756e+002	-2.378366e+001	1.651728e+002
	-1.095462e-001	-3.146027e+000	-3.966676e+001	1.036963e+002	-2.398421e+001	4.244649e+000	-4.449863e+001	8.001887e+001
	-4.870419e+001	1.295175e+002	-2.398585e+001	4.375545e+000	-3.436115e+001	9.712885e+001	-1.383932e-001	-4.363466e+000
	-2.380708e+001	1.652059e+002	-4.452766e+001	8.007245e+001	-1.144435e-001	-4.154636e+000	-3.379040e+001	1.012669e+002
120000000	-3.820672e+001	1.300227e+002	-1.045965e-001	-3.245248e+000	-4.827841e+001	1.288859e+002	-2.383514e+001	1.644479e+002
	-8.222209e-002	-3.301831e+000	-3.990261e+001	1.031003e+002	-2.399236e+001	4.396922e+000	-4.428789e+001	8.004306e+001
	-4.847505e+001	1.276807e+002	-2.398165e+001	4.334585e+000	-3.432922e+001	9.597287e+001	-1.404101e-001	-4.521577e+000
	-2.377038e+001	1.644644e+002	-4.434111e+001	8.037646e+001	-1.329698e-001	-4.510254e+000	-3.380646e+001	1.003791e+002
125000000	-3.829358e+001	1.313355e+002	-6.817721e-002	-3.334885e+000	-4.807955e+001	1.274510e+002	-2.380332e+001	1.640378e+002
	-1.167307e-001	-3.426711e+000	-4.011907e+001	1.017673e+002	-2.401166e+001	4.434666e+000	-4.398796e+001	8.006889e+001
	-4.830019e+001	1.280903e+002	-2.395168e+001	4.599231e+000	-3.428514e+001	9.511550e+001	-1.414594e-001	-4.870922e+000
	-2.379898e+001	1.639689e+002	-4.398702e+001	8.001911e+001	-1.367820e-001	-4.769778e+000	-3.374939e+001	9.938666e+001
130000000	-3.833994e+001	1.314729e+002	-8.998564e-002	-3.565713e+000	-4.782449e+001	1.270238e+002	-2.381298e+001	1.632543e+002
	-1.164515e-001	-3.547157e+000	-4.017715e+001	1.003321e+002	-2.398939e+001	4.847299e+000	-4.370349e+001	8.030501e+001
	-4.810001e+001	1.269970e+002	-2.399070e+001	4.681753e+000	-3.429640e+001	9.388741e+001	-1.411632e-001	-5.061429e+000
	-2.380652e+001	1.632697e+002	-4.370406e+001	8.025621e+001	-1.542810e-001	-4.988968e+000	-3.369788e+001	9.817828e+001
135000000	-3.846275e+001	1.321292e+002	-8.747226e-002	-3.848308e+000	-4.771015e+001	1.261901e+002	-2.381602e+001	1.627748e+002
	-1.141869e-001	-3.811140e+000	-4.038228e+001	9.870051e+001	-2.399195e+001	4.872312e+000	-4.341554e+001	7.975425e+001
	-4.777763e+001	1.264788e+002	-2.397483e+001	4.847279e+000	-3.420340e+001	9.308198e+001	-1.287790e-001	-5.026446e+000
	-2.380992e+001	1.627317e+002	-4.343479e+001	7.992463e+001	-1.240726e-001	-5.185526e+000	-3.359627e+001	9.754035e+001
140000000	-3.845784e+001	1.319829e+002	-8.958923e-002	-3.937866e+000	-4.780929e+001	1.251784e+002	-2.379215e+001	1.620883e+002
	-1.121601e-001	-3.856855e+000	-4.063227e+001	9.719973e+001	-2.399024e+001	4.978791e+000	-4.318673e+001	7.995740e+001
	-4.777843e+001	1.242440e+002	-2.399652e+001	4.893167e+000	-3.406458e+001	9.220729e+001	-1.257710e-001	-5.244518e+000
	-2.380870e+001	1.621169e+002	-4.314955e+001	8.017701e+001	-1.134603e-001	-5.375882e+000	-3.349439e+001	9.607513e+001
145000000	-3.859171e+001	1.321634e+002	-9.133875e-002	-4.058555e+000	-4.729669e+001	1.243460e+002	-2.378203e+001	1.612962e+002
	-1.126194e-001	-4.138945e+000	-4.083420e+001	9.515789e+001	-2.401547e+001	5.243405e+000	-4.287325e+001	7.980055e+001
	-4.749544e+001	1.250984e+002	-2.399801e+001	5.205753e+000	-3.401839e+001	9.077322e+001	-1.254625e-001	-5.632686e+000
	-2.379594e+001	1.613904e+002	-4.287954e+001	8.029385e+001	-1.420038e-001	-5.656007e+000	-3.344662e+001	9.556148e+001
150000000	-3.863896e+001	1.329324e+002	-9.040607e-002	-4.194190e+000	-4.717500e+001	1.236503e+002	-2.381580e+001	1.607856e+002
	-1.248963e-001	-4.270713e+000	-4.102994e+001	9.379156e+001	-2.401228e+001	5.223613e+000	-4.263481e+001	8.023798e+001
	-4.720369e+001	1.238869e+002	-2.400756e+001	5.334059e+000	-3.391415e+001	8.987187e+001	-1.333675e-001	-5.824297e+000
	-2.380464e+001	1.607917e+002	-4.252209e+001	8.054899e+001	-1.390864e-001	-5.876393e+000	-3.339480e+001	9.414049e+001
155000000	-3.867177e+001	1.332854e+002	-1.113108e-001	-4.341617e+000	-4.697657e+001	1.227180e+002	-2.381017e+001	1.600746e+002
	-1.193785e-001	-4.465808e+000	-4.120785e+001	9.211369e+001	-2.401875e+001	5.515363e+000	-4.243140e+001	8.001413e+001
	-4.689485e+001	1.226242e+002	-2.400105e+001	5.527033e+000	-3.379549e+001	8.885083e+001	-1.394587e-001	-6.114189e+000
	-2.379704e+001	1.602937e+002	-4.244682e+001	8.074170e+001	-1.469670e-001	-6.072066e+000	-3.332709e+001	9.273926e+001
160000000	-3.874424e+001	1.339298e+002	-1.126742e-001	-4.455789e+000	-4.669767e+001	1.216045e+002	-2.378796e+001	1.595917e+002
	-1.229452e-001	-4.581201e+000	-4.130559e+001	9.015894e+001	-2.401142e+001	5.629229e+000	-4.220762e+001	8.052351e+001
	-4.675991e+001	1.210405e+002	-2.400814e+001	5.584539e+000	-3.374443e+001	8.797261e+001	-1.277086e-001	-6.283965e+000
	-2.380597e+001	1.596111e+002	-4.206895e+001	8.064427e+001	-1.332037e-001	-6.341523e+000	-3.326903e+001	9.165474e+001
165000000	-3.882560e+001	1.330374e+002	-1.350139e-001	-4.718003e+000	-4.664290e+001	1.205340e+002	-2.377270e+001	1.587475e+002
	-1.055258e-001	-4.670808e+000	-4.133094e+001	8.822995e+001	-2.400897e+001	5.857387e+000	-4.186552e+001	8.056109e+001
	-4.651837e+001	1.214172e+002	-2.404377e+001	5.913077e+000	-3.363698e+001	8.718731e+001	-1.331020e-001	-6.347597e+000
	-2.378529e+001	1.589390e+002	-4.198601e+001	8.083128e+001	-1.336516e-001	-6.589381e+000	-3.313089e+001	9.072689e+001
170000000	-3.887049e+001	1.341030e+002	-1.319662e-001	-4.859978e+000	-4.640138e+001	1.194373e+002	-2.380587e+001	1.583829e+002
	-1.144600e-001	-4.893654e+000	-4.153310e+001	8.679285e+001	-2.402561e+001	6.019087e+000	-4.160860e+001	8.016449e+001
	-4.627756e+001	1.209745e+002	-2.404046e+001	6.050951e+000	-3.355464e+001	8.599144e+001	-1.383747e-001	-6.538860e+000
	-2.380557e+001	1.583691e+002	-4.171083e+001	8.026876e+001	-1.084921e-001	-6.633379e+000	-3.306847e+001	8.904645e+001
175000000	-3.891368e+001	1.340719e+002	-1.225826e-001	-4.946506e+000	-4.623219e+001	1.195585e+002	-2.383266e+001	1.574435e+002
	-8.557807e-002	-5.072956e+000	-4.160990e+001	8.491359e+001	-2.403455e+001	6.282114e+000	-4.145852e+001	8.039260e+001
	-4.614379e+001	1.194725e+002	-2.402463e+001	6.243510e+000	-3.344642e+001	8.506878e+001	-1.626663e-001	-6.855319e+000
	-2.378758e+001	1.577010e+002	-4.150111e+001	8.025639e+001	-1.487528e-001	-6.790899e+000	-3.300344e+001	8.855081e+001
180000000	-3.891350e+001	1.349228e+002	-1.275459e-001	-5.141247e+000	-4.594945e+001	1.189245e+002	-2.378316e+001	1.572664e+002
	-1.078384e-001	-5.185517e+000	-4.175721e+001	8.325327e+001	-2.405048e+001	6.413660e+000	-4.116281e+001	8.017254e+001
	-4.596005e+001	1.192334e+002	-2.404780e+001	6.565282e+000	-3.334963e+001	8.457501e+001	-1.568516e-001	-6.955411e+000
	-2.378124e+001	1.569870e+002	-4.125357e+001	8.061966e+001	-1.603187e-001	-6.983376e+000	-3.283542e+001	8.726732e+001
185000000	-3.910174e+001	1.346839e+002	-9.582423e-002	-5.364203e+000	-4.579693e+001	1.178617e+002	-2.378612e+001	1.563300e+002
	-1.197578e-001	-5.302501e+000	-4.198742e+001	8.051125e+001	-2.404872e+001	6.500913e+000	-4.098480e+001	8.046076e+001
	-4.561843e+001	1.184097e+002	-2.404374e+001	6.467075e+000	-3.328328e+001	8.355346e+001	-1.414732e-001	-7.312474e+000
	-2.380796e+001	1.565248e+002	-4.095959e+001	8.077505e+001	-1.521734e-001	-7.279152e+000	-3.281471e+001	8.606023e+001
190000000	-3.907362e+001	1.350400e+002	-1.019772e-001	-5.444553e+000	-4.559493e+001	1.169255e+002	-2.378625e+001	1.558043e+002
	-1.097731e-001	-5.499644e+000	-4.208201e+001	7.929110e+001	-2.404287e+001	6.851800e+000	-4.087364e+001	8.047223e+001
	-4.550367e+001	1.168241e+002	-2.405106e+001	6.737473e+000	-3.315948e+001	8.263816e+001	-1.539810e-001	-7.578370e+000
	-2.376803e+001	1.557692e+002	-4.075203e+001	8.102452e+001	-1.591208e-001	-7.482676e+000	-3.276552e+001	8.504729e+001
195000000	-3.921046e+001	1.347945e+002	-1.046261e-001	-5.649263e+000	-4.534016e+001	1.163861e+002	-2.378333e+001	1.551949e+002
	-1.115284e-001	-5.637609e+000	-4.212097e+001	7.656941e+001	-2.404750e+001	6.901675e+000	-4.060314e+001	8.024031e+001
	-4.541350e+001	1.163222e+002	-2.404175e+001	6.915991e+000	-3.316227e+001	8.181787e+001	-1.512164e-001	-7.724653e+000
	-2.376633e+001	1.551839e+002	-4.065485e+001	8.081596e+001	-1.531426e-001	-7.712253e+000	-3.262321e+001	8.397621e+001
200000000	-3.928640e+001	1.355422e+002	-1.024296e-001	-5.855494e+000	-4.515245e+001	1.156876e+002	-2.376799e+001	1.545036e+002
	-1.122776e-001	-5.776992e+000	-4.222144e+001	7.414758e+001	-2.404174e+001	7.047907e+000	-4.032894e+001	8.021563e+001
	-4.514732e+001	1.162688e+002	-2.403382e+001	7.119715e+000	-3.301499e+001	8.053894e+001	-1.668950e-001	-8.028560e+000
	-2.376617e+001	1.546452e+002	-4.038335e+001	8.069048e+001	-1.512801e-001	-7.814229e+000	-3.252574e+001	8.325912e+001
