!Agilent Technologies,E5071B,JP1KK00267,A.09.10
!Date: Fri Sep 22 11:03:05 2017
!Data & Calibration Information:
!Freq	S11:SOLT4(ON)	S12:SOLT4(ON)	S13:SOLT4(ON)	S14:SOLT4(ON)
!	S21:SOLT4(ON)	S22:SOLT4(ON)	S23:SOLT4(ON)	S24:SOLT4(ON)
!	S31:SOLT4(ON)	S32:SOLT4(ON)	S33:SOLT4(ON)	S34:SOLT4(ON)
!	S41:SOLT4(ON)	S42:SOLT4(ON)	S43:SOLT4(ON)	S44:SOLT4(ON)
! "David Morgan-soldered to Test PCB SM1, calibration OSLT PCB 1000029771 Edge launch SMA connectors, port 1-pin1,port 2-pin6,port 3-pin4, port 4-pin3 ENA E5071B"
!
! Created with skrf 1.8.0 (http://scikit-rf.org).
# Hz S RI R 50.0 
!freq ReS11 ImS11 ReS12 ImS12 ReS13 ImS13
! ReS14 ImS14
! ReS21 ImS21 ReS22 ImS22 ReS23 ImS23
! ReS24 ImS24
! ReS31 ImS31 ReS32 ImS32 ReS33 ImS33
! ReS34 ImS34
! ReS41 ImS41 ReS42 ImS42 ReS43 ImS43
! ReS44 ImS44
!
5000000.0 -0.047902311787431054 0.20546613470258063 0.9515920601070229 0.20321355559329826 -0.06558368294685578 -0.0009771465619141102 -0.007790229757424951 0.011354372713923276
 0.9516078109541134 0.20292310308380218 -0.04440318462376562 0.208007820545635 -0.0036547403562496488 0.012225750084436814 0.05458358311330543 0.02544525081692206
 -0.06581141642421716 -0.001040397137432303 -0.0036961202508871195 0.012270928806410642 -0.04654288594219225 0.20633060759171565 0.950446306662029 0.20228732314380626
 -0.0078077050897175995 0.011305412850196966 0.05447129721030396 0.025329421856170226 0.9513615889689625 0.20231169133137883 -0.04544677491838819 0.2091285517500449
10000000.0 -0.013463039584662898 0.10602472438063631 0.9838633536730024 0.0984920593002418 -0.0639651746092898 0.0008726346397089626 -0.0038533771872065106 0.006563958329488958
 0.9871249648919077 0.09834507092269999 -0.009214545804274867 0.10751543834838967 0.00044699959545569024 0.006975230425200647 0.061010403493369544 0.013916227505534234
 -0.06402573805995529 0.0008459663956575304 0.00040865952853006283 0.006992388774819858 -0.012305543671551844 0.1070799181666978 0.9877241555673267 0.09859565546556699
 -0.003785416152817631 0.006589745702290312 0.06094113645408437 0.013737344152011234 0.985364206938226 0.0979688914717684 -0.010609900800842169 0.10841407595299776
15000000.0 -0.006918930122485556 0.06962328882051083 0.9920506247155906 0.06300921532201849 -0.06372237712167945 0.001649932123771052 -0.0029698068197421532 0.00451843453013428
 0.992514027075429 0.06167613118817712 -0.002391643539863084 0.07043390600481228 0.001249711719633854 0.004892645006636596 0.062416872178913736 0.009574632338834476
 -0.06378381812802379 0.0017638178013032974 0.001209748334909046 0.004866789593279196 -0.0059235242896793 0.07148088163748234 0.992279704595716 0.05835365535450476
 -0.0030711362738661545 0.004628177613748988 0.062250525771925 0.009696255113928385 0.9913928110476852 0.0599671844150958 -0.00338866210937393 0.07237531982866685
20000000.0 -0.004559721304893121 0.05064104278990732 0.9933354495729289 0.03728012446146172 -0.06364177810445293 0.0023730126842111655 -0.002628133575140692 0.003514991214603916
 0.9962579813430895 0.03938750210659663 -0.00017640543620142085 0.05124859070764765 0.001394061156862391 0.003748952074488207 0.06307216552821711 0.007349678220148545
 -0.06369088647497466 0.0024581123460401494 0.001384401268252269 0.0038369911725821397 -0.0036191409046472207 0.05312286225404894 0.9964990374889887 0.03649454117956699
 -0.0025585039054664255 0.003591794187395774 0.0627866740271163 0.007240278225536092 0.9963479028963202 0.03541671094605882 -0.0014189011576612044 0.05370849674921924
25000000.0 -0.004199643522080092 0.03852029892084506 0.9951960206335912 0.02492581612893042 -0.0639345610627445 0.0030752472869757927 -0.0024792201573807003 0.0028486308876187103
 0.9982867204369168 0.026294036030016104 0.000137717079235629 0.03912423055410628 0.0014973591059418286 0.003276763301103464 0.06309810726075567 0.005990777121200387
 -0.06392741049072775 0.0032842874700187144 0.0014320577844371878 0.0032340599825461842 -0.0032805074449524093 0.04163987238179474 0.9974141362230187 0.019225585656461725
 -0.00242218205780733 0.00281660323170433 0.06302025386555712 0.006209264369793521 0.9954171437602677 0.019557736239611212 -0.000858524291004843 0.04217266324300685
30000000.0 -0.004502015870806598 0.030564921373468897 0.993006826495859 0.012344120712926647 -0.0638205130229746 0.0038971687815138483 -0.0023432452320760653 0.0024017576474463552
 0.995738626927345 0.013938473692864297 -0.00020690075888126747 0.030837007388216202 0.0013159354048791379 0.0029245389539886615 0.06320317498310309 0.004946682257847697
 -0.0637121389466095 0.003922026871685039 0.0013491471464237004 0.002772273382003006 -0.003886658027782371 0.034414933802620395 0.9919070315247346 0.00804684380456906
 -0.0022887802192745987 0.002451455187647785 0.06310012395094554 0.004951083703659582 0.9934752591343075 0.008920815283916509 -0.001311933033223841 0.034747708884447545
35000000.0 -0.00535753822143578 0.02490435715490436 0.9944241592095665 0.006284574874968736 -0.06391587643945118 0.004480083069168572 -0.002359593028455341 0.0019566702720935415
 0.9943302125703197 0.007200176090158167 -0.000951509454913896 0.02512851791026555 0.001189552529456908 0.0028499685815234657 0.0633656883539521 0.004333732404008168
 -0.0637982867928345 0.00467721692758401 0.0013746888566306208 0.002708349841097726 -0.004576568063942502 0.02946177443829117 0.9924918410011319 -0.0011882681450540171
 -0.002381936861457713 0.0021873128163443847 0.06336151164961185 0.004263506471566784 0.9917707467260171 -0.0013961238928462021 -0.0021651093288262294 0.029561727197451135
40000000.0 -0.0058508530557217185 0.020890632683890326 0.9919046283012116 -0.0028027928241357333 -0.06387928921768668 0.005399462537026367 -0.0023751908530434186 0.0018390692528393385
 0.9935772272833595 0.00020284740562021526 -0.0015660765456839206 0.02108994349459303 0.0011718093081266208 0.0028149553460754626 0.06330414143874943 0.0038564444997665
 -0.06393561528061664 0.005493356107337981 0.0011969233970050579 0.0026592598931646236 -0.005275273154788723 0.026147836074700618 0.991570088057634 -0.010032629725431924
 -0.0022750634437730755 0.0019345881120539888 0.06320968056675831 0.003687869487131761 0.9923394675383591 -0.010416687700499413 -0.0027046367218516543 0.026234068764932172
45000000.0 -0.006391542129581742 0.017713797455930512 0.9917637780096543 -0.007941793418568925 -0.06368109045198757 0.006231642312637455 -0.0022627039810536108 0.0017966980227800205
 0.9913353992587752 -0.00749270749888054 -0.00226096101771641 0.01811879325081251 0.0011708386643736477 0.0028715292636373392 0.06323148810228023 0.0034981661375444906
 -0.06373344876748892 0.006312128615383092 0.0011902804987944967 0.0028652072901167967 -0.00558846701964888 0.02404618311013127 0.9917611349258394 -0.016492994759735223
 -0.002259238747812414 0.0017610566275174328 0.06330821794772454 0.0034633796308320606 0.9893103753945354 -0.0159070496988009 -0.0031339585307516393 0.023876197722187017
50000000.0 -0.006807305995248465 0.01519934392911217 0.9893131626427206 -0.013133498378283575 -0.06363915546067016 0.007059894957293756 -0.0023494402848240788 0.0014923061774081555
 0.9906208486655982 -0.011894694623476788 -0.0027019848450691806 0.015693492352553556 0.001117844858231288 0.002973799966826261 0.06321377638126914 0.0031565232105909263
 -0.0635555377043454 0.0071441718365078295 0.001174648892675461 0.0029068584614041736 -0.006107970839027736 0.022395151979714326 0.9908394855613307 -0.02258812134412596
 -0.002360494407048455 0.0016440714214243867 0.06310790223809694 0.003237555609985771 0.9881453448703343 -0.022101656181048826 -0.00358655433448923 0.022150227976321886
55000000.0 -0.007038928888658108 0.013425909824751467 0.9909879047392008 -0.017956442664827498 -0.06356651917077712 0.007805324996057429 -0.0024645752825580964 0.0015059305087143117
 0.9893995690504033 -0.016156467906930174 -0.0031704568678247213 0.01376508811286557 0.001082361522454975 0.0030542768686523222 0.06311150412894824 0.0031168156036311388
 -0.06349893906685802 0.007909210961044275 0.001122229054233162 0.003095322153584323 -0.0063046822122005 0.021259585927930192 0.9899361341863692 -0.02816697970633422
 -0.0024023915761685706 0.0015893185030779965 0.06300683009363199 0.0031157668170088823 0.9878940747911783 -0.02904772990126947 -0.0037066441316926414 0.02087248712611497
60000000.0 -0.007449587143272006 0.011765024085799772 0.9890078625031722 -0.02327620876177307 -0.06343021305981181 0.008542622702435153 -0.0023889236239147565 0.0013802854782387643
 0.9909078447423747 -0.020084552671959622 -0.003271848655972721 0.012235045945887027 0.0011686525055457076 0.0032063341780727223 0.06304293798994164 0.002844283035781175
 -0.06337718836800128 0.008665480828861486 0.0010824420202405188 0.0032284927873865764 -0.0063302036074387 0.020287397741892324 0.9874378186898467 -0.033773216562198415
 -0.0024729006418340257 0.0014837194574762798 0.06298204687712923 0.00280970814475359 0.9887648980385431 -0.03256976350636181 -0.003786128384237183 0.020000396458948043
65000000.0 -0.007535896487006197 0.010400645968777718 0.9928073075049676 -0.025988401621335255 -0.06337541331579134 0.00926671137574916 -0.0024824394548375833 0.0013484998656319769
 0.9910893400240948 -0.02481222829923649 -0.0036246181858633156 0.010810953049163867 0.001165243765030287 0.0033357057012055424 0.06285710374426152 0.0027296971748100324
 -0.06348760866748801 0.009416817659646845 0.0011361621091397075 0.0033252116796004907 -0.006349483034827537 0.019717544997808954 0.9877107275083536 -0.039291512651566565
 -0.0024821221439403495 0.0013877456404713295 0.06302938529963414 0.002726425302007827 0.9837920599524145 -0.038688067522781325 -0.003754103422343796 0.019139952875976314
70000000.0 -0.007682883094918216 0.009089887459509683 0.9895377782717645 -0.028342977466877674 -0.06310959293610642 0.010193153504794213 -0.0025563590093991796 0.0013237550601077422
 0.988183270561441 -0.030257226089774616 -0.0036281527789599776 0.009516789550904861 0.001227210062384637 0.0035794328158937913 0.06285776545461094 0.002772559723218821
 -0.06324247026837075 0.010167844919588862 0.0011314454864784808 0.0034652599234203454 -0.006302109674770565 0.019288054464469018 0.9859018982368584 -0.04306849092407142
 -0.002438202782455268 0.0014322360221962975 0.06291912116097305 0.00287163752942119 0.9899383205667138 -0.041471289128043064 -0.0037035479031930453 0.018584916157569513
75000000.0 -0.007662820986833407 0.008044842687151237 0.990704118953589 -0.029876416488936693 -0.06294659005703444 0.01077367919240138 -0.002561859512392506 0.0012868232430202622
 0.9878556955416007 -0.03120870926501517 -0.003584829377333968 0.00841204022427595 0.0012074715986928205 0.0037244195408307006 0.06289158592922593 0.002748910486978994
 -0.06291045321578909 0.010680830725518127 0.001216898931271672 0.0035988107459751246 -0.006230498215656652 0.01907158848272312 0.9853106716574387 -0.04645471377316059
 -0.002538700030100558 0.0013915912811072394 0.06283499221981996 0.002951038317871452 0.9881389956243046 -0.048331966510973386 -0.0035713667437469233 0.018193827526025223
80000000.0 -0.007818389313555798 0.00698904736509743 0.9884286719217034 -0.035288146920917224 -0.06291259748380885 0.011595321362590148 -0.0026709590783651075 0.0012892774843993669
 0.9854837563780855 -0.037507557714558104 -0.0036124550156478434 0.007413821250764434 0.0012389532902495077 0.003959917301535291 0.06280477091850742 0.0027315263688860035
 -0.06268983663508632 0.011542499414744247 0.0012707391599564369 0.003843899504078661 -0.00609553924940492 0.018796188825361902 0.9860401098661005 -0.05428764909357492
 -0.002601084359891737 0.0014277893613007053 0.06292145508315904 0.00283940407108529 0.985298279670977 -0.04767645065796501 -0.003361037627974584 0.01793046709029464
85000000.0 -0.007728279601594326 0.006093074927755058 0.9880505793337648 -0.038796243130284874 -0.06275918918029576 0.012252472244768652 -0.0026931466181809747 0.0013992581934637403
 0.9887380447607392 -0.040504881251468186 -0.0034783191645301292 0.006600067076709798 0.0013524729600328232 0.004088796640466551 0.06264196519695475 0.002787715125897479
 -0.06278301716259548 0.012278738751948147 0.0012202649079136102 0.004003997796102174 -0.005831971251001516 0.01866176416016677 0.9872945714294178 -0.05534595464409236
 -0.0026725198890907367 0.0013575362664946127 0.06258252059586693 0.0028327558236953296 0.9872720063903451 -0.055692960719797076 -0.003103531708342068 0.017556741102564777
90000000.0 -0.007927130987227506 0.005135319911194311 0.9882349900518884 -0.04224951562054501 -0.06245766788550162 0.012887757595859205 -0.002624136674898133 0.0013647179690288208
 0.9878216500671892 -0.043140037949802035 -0.003486310230685835 0.00568571036796881 0.0013443251851766541 0.004225023087561368 0.06257537190934671 0.002842339771805896
 -0.06250503096800465 0.012941666711154456 0.001299868259275177 0.00421411826436114 -0.005657067499259759 0.018503549547827017 0.9856746721801781 -0.06073324042806075
 -0.002656352241805651 0.001410374334135607 0.06262011564072126 0.00281262245255213 0.9861545505575116 -0.0598017469100907 -0.0030664324833705376 0.017546575941804515
95000000.0 -0.007895096624183992 0.004300507381884432 0.9869875751723987 -0.045346011515804585 -0.06222683183618503 0.013673714266181811 -0.002709483994604402 0.0013452765757728294
 0.9873941708365503 -0.04629062749872539 -0.0034790984331574356 0.004819579253781497 0.0013956651523697485 0.004377604354719875 0.0625395283632937 0.0028733659294518715
 -0.062336165663620734 0.013751809027708142 0.0013325427532392205 0.004325979181053995 -0.005588311697376175 0.018423120818760685 0.9843782787413793 -0.06405558595539229
 -0.0027217440466910073 0.0013864508276354975 0.062449391808965596 0.0027339738149105256 0.9839106386766624 -0.06457091673523312 -0.0026265165207147133 0.01737057850288968
100000000.0 -0.007882631763043529 0.003636428886467555 0.9879736132984144 -0.05000204595129393 -0.06214350879842049 0.01442066465438292 -0.0028148880843386044 0.0014061208044892257
 0.9867158725978393 -0.04849711594428745 -0.0032568447483798365 0.004095662024727901 0.0013710776246159994 0.004613702423943799 0.0625423318881589 0.0029996203756537825
 -0.06211931306814214 0.01429090717733211 0.0013765836817009676 0.004485100912639588 -0.005364005134355359 0.018388731170507277 0.9848040476507769 -0.0692567445178194
 -0.0027575524919848326 0.0013901804183229915 0.062477851117436874 0.0028342758273585964 0.983182161098383 -0.06914963427772004 -0.002346291364561236 0.017368019044303424
105000000.0 -0.007942717217692139 0.0029885724835314186 0.9851342619608178 -0.05240318214642795 -0.061906183177118615 0.015033535945707001 -0.002930005717775572 0.0014273757899857457
 0.9877482084849789 -0.05145608843002314 -0.003105034637177077 0.003292886431369681 0.0014830274169709624 0.004725382860444572 0.06228212418858883 0.002846440611586114
 -0.06181096966806494 0.015054404495065872 0.0014467096891434268 0.004757335568062186 -0.005109380945301044 0.018411228925359475 0.9838766476065128 -0.07300324349480236
 -0.002855155985646348 0.0014305534999436737 0.062437015725190344 0.002927522361217268 0.9818661171054146 -0.07074793746086981 -0.0020014532813044618 0.017063569314493942
110000000.0 -0.00801575298549243 0.0023237404362321783 0.9861382212008039 -0.05706056906518206 -0.06162713500914468 0.01584196293041595 -0.002850109866276808 0.001502819609589874
 0.9877433438419381 -0.0565949753431266 -0.0030227167003566407 0.0026017093523669622 0.0015551681330558493 0.004933711277829972 0.062351016638632344 0.003096670129028983
 -0.06180877286263233 0.015900961175896615 0.001528025341604839 0.004894735202721818 -0.004803552556841044 0.0184806536673886 0.9831136031736978 -0.07502383889680397
 -0.0029203888963417416 0.001526722949220976 0.062257233022182425 0.0028923816625246214 0.9790451504232354 -0.07566032233046649 -0.0017153864703901198 0.017141515439743297
115000000.0 -0.008087544978608256 0.0016335703499888161 0.9866059473037746 -0.058586957745833376 -0.06170742662755409 0.01634874850826124 -0.0029470150292511274 0.0014989950126529249
 0.9867693025553911 -0.059421206873016955 -0.002751852107553375 0.0019768528936232373 0.0016338115675926291 0.0050446893977143595 0.062126202903347964 0.0029062953181170654
 -0.06165585288241319 0.016402703763467277 0.0015210504770245261 0.0050602301154214924 -0.004589176629598938 0.018570547427675183 0.9804923864434144 -0.08125728571401702
 -0.0029160198198363366 0.0014989716242524704 0.06227199879194228 0.003087628186726352 0.9804429633121944 -0.08096487860246482 -0.0012611651155490277 0.017109164676906083
120000000.0 -0.008070064629127372 0.0010192429845838694 0.9853776958811976 -0.06329739486692694 -0.06117280240069212 0.017266346475188328 -0.0029845643769493197 0.0016187330546069728
 0.9879148813102387 -0.06121982556003214 -0.0025959714008046606 0.0013573025911529511 0.0015811598822385222 0.0052830951531470695 0.06200144104806839 0.0028913524325719754
 -0.06147162077794769 0.017186086200599797 0.0015694730704997524 0.005250547835586259 -0.004308678097661266 0.018645266644153898 0.978953433696315 -0.08676692336985126
 -0.002927222303821786 0.001574038597516477 0.06225529073840232 0.0029490933091001746 0.9807520503209883 -0.08481318111143965 -0.0008696271885708441 0.017138928426367123
125000000.0 -0.008273785939370977 0.0005943641712379688 0.9886612619802022 -0.06367538510861663 -0.06113100229697925 0.017905261568989545 -0.0030235335813800068 0.0016760617129472316
 0.9861341272127917 -0.06394178158195958 -0.0024030547184655917 0.0008241508194897349 0.001640910287334752 0.005376161713548458 0.06210054909803976 0.00303652605383273
 -0.06131567407030205 0.01787177308778106 0.0016364085105807303 0.005461650339409096 -0.004088755163305179 0.01894453521057381 0.9808134619058981 -0.08953485755881979
 -0.0029741330561490827 0.001612806735366265 0.06229647470650238 0.00325364478607562 0.9807154485452626 -0.09256982281542689 -0.0004537748099262644 0.017265853949705205
130000000.0 -0.008170316047812463 3.108671369041717e-05 0.9884094718422448 -0.06695271202813038 -0.06089300855174185 0.01855679578556999 -0.0031117199380649753 0.0017586413649823807
 0.9849711402523963 -0.06689152323577896 -0.002279048723198887 0.00038892221851433015 0.0016455126365605623 0.005533863526644924 0.06205896059038973 0.003279352935195762
 -0.061011019160737825 0.01859182785976326 0.0017309032657924872 0.0056150122687693375 -0.0037205982909082162 0.01893395992189598 0.9779261158515625 -0.094039547200001
 -0.003088454571523086 0.001657743306896212 0.06223950319600026 0.0032115120886649262 0.9794691451836887 -0.09375282500812646 -4.193760617831134e-06 0.017237071660594506
135000000.0 -0.008216892353345048 -0.0005368352671353621 0.9839954103744757 -0.07103069931277196 -0.06078015922188304 0.01897141676335627 -0.0031514366610771068 0.0017816540478074688
 0.9853383949644544 -0.07097953048819698 -0.001936692942922917 -0.00021159612237813677 0.0017199874540220277 0.005709858338783241 0.06215362440841925 0.003374218858579644
 -0.060717499931391083 0.019054830924872736 0.0017141590151435525 0.005734083532132474 -0.0034731326928033428 0.0192154855869955 0.9804558732101424 -0.09804081475468895
 -0.003101359597447652 0.0017728890271655744 0.06206731782313596 0.003421884197754985 0.981347461167811 -0.0962037163998626 0.0004197969998331169 0.017384208048115767
140000000.0 -0.00817538937551986 -0.0008341740942097253 0.9862905894860714 -0.07427757440092633 -0.06043830892519268 0.019767478368423675 -0.003143911346604655 0.0018301674113024567
 0.985883204025108 -0.07199985216693366 -0.0018003783586543573 -0.000668081441689403 0.0018013670026516052 0.0058510779329050515 0.06211418134445143 0.00348562721794734
 -0.06051836416532296 0.019853544298832914 0.0017923354122439204 0.005925589218467265 -0.0031125583885664204 0.019313165334006607 0.9816634265050616 -0.10075594497904027
