!Agilent Technologies,E5071B,JP1KK00267,A.09.10
!Date: Fri Sep 22 11:04:20 2017
!Data & Calibration Information:
!Freq	S11:SOLT4(ON)	S12:SOLT4(ON)	S13:SOLT4(ON)	S14:SOLT4(ON)
!	S21:SOLT4(ON)	S22:SOLT4(ON)	S23:SOLT4(ON)	S24:SOLT4(ON)
!	S31:SOLT4(ON)	S32:SOLT4(ON)	S33:SOLT4(ON)	S34:SOLT4(ON)
!	S41:SOLT4(ON)	S42:SOLT4(ON)	S43:SOLT4(ON)	S44:SOLT4(ON)
! "David Morgan-soldered to Test PCB SM1, calibration OSLT PCB 1000029771 Edge launch SMA connectors, port 1-pin1,port 2-pin6,port 3-pin4, port 4-pin3 ENA E5071B"
!
! Created with skrf 1.8.0 (http://scikit-rf.org).
# Hz S RI R 50.0 
!freq ReS11 ImS11 ReS12 ImS12 ReS13 ImS13
! ReS14 ImS14
! ReS21 ImS21 ReS22 ImS22 ReS23 ImS23
! ReS24 ImS24
! ReS31 ImS31 ReS32 ImS32 ReS33 ImS33
! ReS34 ImS34
! ReS41 ImS41 ReS42 ImS42 ReS43 ImS43
! ReS44 ImS44
!
5000000.0 -0.04698838840759654 0.2035404159777609 0.9533100771414291 0.2003141337082764 -0.06615985705580822 -0.0009675982580939934 -0.007047854138169866 0.01140396769454286
 0.9531480843713911 0.20115675137424172 -0.04295393194676512 0.20619489530471216 -0.004610568918609462 0.012480452793035878 0.05480480509980545 0.02556037219389674
 -0.06634368207678312 -0.001083673864847223 -0.004619518810892325 0.012458369558453362 -0.048760926645348174 0.21187984421275782 0.9494521619376594 0.20729389114126592
 -0.007060383026388108 0.011359456764541252 0.05475946567774966 0.025579999719482615 0.9500042874766276 0.20775267658001317 -0.04800888447242805 0.213511733103775
10000000.0 -0.013201480125676613 0.104758964817137 0.9853361954542268 0.09927895651646897 -0.06440651946911276 0.000993563530908327 -0.0030627871477851417 0.006637938901679645
 0.9866256785609373 0.0991774146323648 -0.008812743930108991 0.10615121319925426 -0.00044491768586771605 0.007140490969277566 0.06134767802344567 0.014159877963496511
 -0.0643645697206226 0.0008069615791656327 -0.00034224466051354816 0.007114897260360272 -0.013004489804049965 0.11010338060390613 0.98642080796846 0.10114324062454617
 -0.003176557401910635 0.006565029073240555 0.06135109415015427 0.014122145272672559 0.9854917650755286 0.10110031486401502 -0.011164246966830294 0.11123915864737377
15000000.0 -0.006819330919258862 0.06890432126172065 0.9921899716341162 0.05799808528238209 -0.06415874040514805 0.0015375299500864966 -0.002311719375243676 0.004545689980869228
 0.9928855272816631 0.060430814582654306 -0.0019576247476712993 0.06980729298675015 0.00046125038440163565 0.005111857121378425 0.06276022347295415 0.009774736656892267
 -0.06429135258236537 0.0018536545712101895 0.00042796636443308506 0.005059332955465425 -0.006008888964634711 0.07347192019527607 0.9920749655121992 0.061156956391074026
 -0.0023589139288436784 0.0046055389187163375 0.06260235085237462 0.009629364537584732 0.9901008306585855 0.06465247257888312 -0.003756385943669162 0.07445381612854439
20000000.0 -0.004388389254139504 0.05006863277968597 0.9922312288598568 0.037040915018102485 -0.06395305272264935 0.0025024375371160974 -0.0019912838250750373 0.003620485180412155
 0.9933152088425182 0.037126848963027544 5.006856039815585e-05 0.05076475432524454 0.0007471253218677077 0.004042462608503669 0.06331012236092062 0.007459495344700569
 -0.06382151826662297 0.002497848488007951 0.0007609538338800429 0.003980182271415153 -0.0035576796756908446 0.05479209895526073 0.9954249516463303 0.03697800485713206
 -0.0019327778782044624 0.0036058394546680996 0.06316934316597284 0.007435133761293379 0.9942394773934198 0.037663738749522384 -0.0016002994377158366 0.05539401511120424
25000000.0 -0.003959242521988733 0.03843357168011403 0.9944752957120544 0.023486385355356434 -0.06413659650137803 0.003234542732990731 -0.0018002817334311064 0.0029607570234074397
 0.9971069093457381 0.02242565014422056 0.00039939866139633784 0.039036266075469304 0.0008069156972563378 0.0034583089553276666 0.06330298503962044 0.006111082774728657
 -0.06436121703708216 0.00356511025103496 0.0007279934663510991 0.003377212388658033 -0.0030905401474157945 0.04301913318676849 0.99428597259195 0.020033703650253767
 -0.001775302294642256 0.003027696891785694 0.06327064067086413 0.006458278767659383 0.9927938555794534 0.02142891128900308 -0.0009212642409287971 0.04365211618512055
30000000.0 -0.00448519385445521 0.030495791163521843 0.99237648099192 0.01020548842951987 -0.06418197721430462 0.004165873260447342 -0.001732222235544983 0.002568869695625969
 0.9956569235031715 0.012723336199025069 2.8677000612228472e-05 0.030774875980710086 0.0007204316816521256 0.003151878872370599 0.0636580498612689 0.005200053467257241
 -0.06408365837042541 0.00396263617601733 0.0008038790745823118 0.0030978775179477296 -0.003569705737303433 0.03571747674667805 0.9928150874919943 0.010171511439289793
 -0.0018230753440126894 0.0027494008641974917 0.06349897826726482 0.005125604587320805 0.9948486495092674 0.009317513158225243 -0.0014335610643672091 0.03628204533281554
35000000.0 -0.005234889082615839 0.024968511977920483 0.9922731012001049 0.005573767580740312 -0.06417433323055839 0.004851763236868204 -0.0017501554463048878 0.0024333577937989655
 0.9936632810784418 0.004407581421763529 -0.0007832533295143958 0.02531589226115996 0.0006926420671414307 0.003038418324410133 0.06370280608777582 0.004690195878276819
 -0.06413095158487044 0.004920984340389526 0.000691733045786276 0.002998249482505908 -0.0042497150731130515 0.030643567121664175 0.9935818272852738 0.0012657151490859068
 -0.0017655634136768262 0.0023870064312325953 0.06350116300742038 0.004630982239696976 0.9909105488444392 0.0006596686125309101 -0.002163397568074339 0.030914532492716376
40000000.0 -0.005874483376173654 0.020801966778329857 0.990874739096216 -0.003610891153580678 -0.06409102106889487 0.005667320387014088 -0.0018009146566291114 0.002089009777208927
 0.9913863367079109 -0.002954325789058831 -0.0014064298518895178 0.02122899823180669 0.0006358264252948948 0.0029948311462296086 0.06354363427478499 0.004131320797260714
 -0.06426646117788704 0.0056841903960208875 0.0005112960394443401 0.002927168952570496 -0.005003848065759828 0.02721433103585359 0.990983715563134 -0.00733046824364171
 -0.001843045073314525 0.00215997354286249 0.06353256490318523 0.004070655130986111 0.9900957179373224 -0.008865412109433615 -0.002772499481519924 0.027385500559783123
45000000.0 -0.006495541779575293 0.018030212036863877 0.9913529700891991 -0.009761994475230875 -0.0640520927404159 0.006463032080111547 -0.0016939427150311512 0.0020769271642297445
 0.9905859129509479 -0.009168716399046187 -0.0020799899569428114 0.01834436042411623 0.0006201648823121346 0.0031823251495082987 0.06355012921911082 0.003919795052393612
 -0.06407690265142099 0.006498412569144367 0.000619407079064613 0.002932845282915496 -0.005460554362090705 0.025130326776348674 0.9916782578466771 -0.014398615018294196
 -0.0017684685504271718 0.0021338032639858766 0.06368730009334037 0.003696157175833557 0.9891139665575549 -0.014377665662821438 -0.003399233145169207 0.024978234734925157
50000000.0 -0.00664248065528531 0.01554690515681779 0.9882836917021431 -0.015087990584067318 -0.06395358433299074 0.007341886683849625 -0.001782150696147291 0.0019788412561672557
 0.9902062174181733 -0.013434026577428457 -0.0024983489760381683 0.016023625930765478 0.0005889389877742102 0.0032053377016767223 0.06357640916024881 0.003576231012768461
 -0.06403549393459883 0.007311660115141459 0.0006049669436063757 0.0031107140356112185 -0.005746125283066023 0.023525509807930785 0.9904867897345978 -0.02010104332377932
 -0.0018199138443066847 0.002048320079815831 0.06346045842719178 0.0036183446725730328 0.9898728417638061 -0.019383835516936218 -0.003742086300493821 0.02328605495498709
55000000.0 -0.006959527656275787 0.013716495038181982 0.988727948378601 -0.018473741670473966 -0.06416042084580016 0.008032772167997535 -0.0018771971225371028 0.001980934718265342
 0.9902054965823359 -0.016724778111585972 -0.002958576452487357 0.014182804021178982 0.0005022327815341392 0.0032366558294692725 0.06345097479564701 0.003513232516488774
 -0.06388880436818048 0.007982571326821406 0.0006213081730026288 0.0031060369672806882 -0.00613281545082058 0.02230564095809731 0.9897561095781748 -0.025583654691358076
 -0.0017752234006085936 0.0019162012989119954 0.06331397232353757 0.0035023082266187502 0.9895725348916246 -0.02456576416545235 -0.004005444901895141 0.02209182285958708
60000000.0 -0.007224320805870397 0.012184285085183977 0.9877592591580225 -0.024259669068068004 -0.06372165925198763 0.008625132654214034 -0.001831836663566704 0.0018788446029575773
 0.9910721643052004 -0.02166931462384628 -0.0031780443684091275 0.012613743200281373 0.0006790346351761718 0.0034250707684874097 0.06341380869710117 0.003275733086131996
 -0.06379710712426782 0.008659724445417747 0.0004637351005972034 0.003376621915369482 -0.00603316080627917 0.0213814038500163 0.9887796838790539 -0.03091092840882245
 -0.00175912143333461 0.001994033301753046 0.06334414830836205 0.0034292924884220797 0.9884274995024468 -0.030826770712798594 -0.0042257245086096485 0.021090208867261383
65000000.0 -0.007292269615620136 0.010716564088339845 0.9891722836292564 -0.027540464057393816 -0.06360385625931252 0.009495446224831396 -0.001753028494824603 0.0018638565750682783
 0.9911891708345822 -0.026113895945608312 -0.003396682750870396 0.011405651049481276 0.0005345542422379995 0.0035763717742040312 0.0632795527780774 0.0033330406054187193
 -0.06369541931496121 0.00957492738138299 0.0005612763303545508 0.00353803995883117 -0.006039583312520892 0.020780124125551545 0.9883103679523723 -0.03560672685689868
 -0.0018691708971642304 0.002039456159812198 0.06327380342333562 0.0032809125695695356 0.9838028285895587 -0.03660348944361358 -0.004243347074667994 0.020302551647043292
70000000.0 -0.00742833422164797 0.009526772788069498 0.9911307484315509 -0.029752050258732517 -0.0634822197297639 0.010309166797897767 -0.0018034127866280397 0.0018777453550651228
 0.987367119266131 -0.030620946408611325 -0.003457497370190338 0.010119959154481668 0.0005705809224024781 0.0037920093428410245 0.06316424123947768 0.003292503416242377
 -0.06365493572095901 0.01016966216054427 0.0006299673883739318 0.003701805599837309 -0.005881474564978286 0.02039635200623469 0.9855042975045696 -0.039352190393787095
 -0.0018208300633221594 0.0019270496964570029 0.0633304640134389 0.00348038489792397 0.9881871102312259 -0.0384829426943036 -0.004110831793937063 0.01975649496448809
75000000.0 -0.007392944653994145 0.008548235866232655 0.9910482610846715 -0.032787902616505535 -0.06326090744174102 0.011046825920213499 -0.0019562689285471152 0.0019066912702112343
 0.9861748008603097 -0.03416330898692447 -0.003465787579115607 0.008991656230139379 0.0006783320266971898 0.004061503501620085 0.0633629632057468 0.0032414033553026457
 -0.06327257931876634 0.010894275132783689 0.0005103827651572595 0.0038566833841185972 -0.005792480192788143 0.020128101538954533 0.9881792491909984 -0.04269532840918097
 -0.0018921765243782235 0.0020255924504032083 0.06327460290089515 0.003526801869073932 0.9884561521886064 -0.04641087078573021 -0.004194137318909094 0.019406524363103927
80000000.0 -0.007537240291786525 0.007493770328994772 0.9874850969710716 -0.037320777943443975 -0.06322831018750885 0.011848048433856988 -0.0018335505828182028 0.0019027138085675398
 0.9847843961832149 -0.038299960147196936 -0.003449058238575353 0.008147484694375975 0.0006527979755242742 0.004155848021116108 0.0631104020981659 0.003378886823616029
 -0.06298789811781587 0.011609199903375922 0.0005479266658590131 0.004000569771815679 -0.005660715481853567 0.019829792548542304 0.985298679629233 -0.051099975393175644
 -0.0018529095304759718 0.0020528945911999254 0.06325208003537898 0.0034583774545378066 0.9852793427970309 -0.0454407873754887 -0.004032463205114636 0.019157281929015023
85000000.0 -0.0074911087270271804 0.006696177547526029 0.986861529850218 -0.04047145034124895 -0.06302491995562723 0.01257932342700812 -0.0019400973935186781 0.0020891823470567377
 0.9865808345329352 -0.039896165278108596 -0.0032578735979039643 0.007295190878910935 0.0005689443428225181 0.004280056269754848 0.06303081600953021 0.0034472969200537366
 -0.06319812244251288 0.012290995444035249 0.0005918346287295034 0.004182358260966966 -0.005390469250485673 0.01965274728617134 0.9870010338758138 -0.051166430873243435
 -0.0018766611982742316 0.002026020940258297 0.0629438568172526 0.0036341389192018772 0.9866512355862178 -0.052721241941657004 -0.003915008433701432 0.01893148228609872
90000000.0 -0.007554744837393622 0.005759175123754153 0.9868294506758594 -0.045143229665129354 -0.0629777667447229 0.013281599596642841 -0.0019177122430729923 0.0021150903011508395
 0.9871533595685468 -0.04412092825284688 -0.0033722652584407425 0.006422891940848672 0.0007477986158657942 0.004449193583422457 0.06298058602839432 0.00350971156995142
 -0.06300358952009848 0.01309753830848471 0.00057367823854766 0.004399294191088965 -0.005060668199154042 0.019638410929178854 0.9861956705948595 -0.055082371599937764
 -0.0018367564279014369 0.0022386677852148634 0.06301717860470288 0.0034914299409229002 0.9871629830956439 -0.05568197107259775 -0.0039021565486911662 0.01886784103664226
95000000.0 -0.007591897604556142 0.005035626174709909 0.9867971580729095 -0.04627327118450941 -0.06265340096929473 0.013981044487845038 -0.0019652513494571814 0.0021317596177483225
 0.9858303373511024 -0.0475663822951396 -0.0031596733984277925 0.0056875299885039195 0.00074025742984856 0.004677240910350862 0.06305088773686077 0.003584757853405289
 -0.06268564988657484 0.014010983861941207 0.0006961233203121522 0.004610291163761083 -0.004878677427586142 0.019618791129040167 0.9854105890177292 -0.05977665590978579
 -0.0019311944521688165 0.002202748841735155 0.062901969279269 0.0036570744475301173 0.9847839220969917 -0.061021041983067154 -0.0035888481443293444 0.01883000557463421
100000000.0 -0.007514244365849042 0.004415265017143511 0.9877985262382503 -0.05146417243272897 -0.06253351475254888 0.014727107217937565 -0.0019580747918463742 0.002243104987398489
 0.9867074065245188 -0.05064953019894312 -0.003151968803285523 0.0048824536817277005 0.0007144275176082695 0.004777847618044511 0.06286055316019376 0.003717930671928444
 -0.06250289281022021 0.014637595594659715 0.0006319912664989741 0.004788276619166222 -0.004794553648017679 0.019583360196866226 0.9849156472985148 -0.06434275025027836
 -0.0019759289407655237 0.002292369222522846 0.06305393211490343 0.003745403584186639 0.9836998804063466 -0.06474720625977622 -0.003414320461197713 0.01876972838846926
105000000.0 -0.007573623262363011 0.0036607922425367 0.9831328946094068 -0.05407349503604627 -0.062345003749842774 0.015330824777394962 -0.002001440907551426 0.0023358306442126955
 0.9873712099821087 -0.052839712539231504 -0.002896221925509697 0.004335796464533945 0.000741248509054623 0.0049970855354064155 0.06286012010308452 0.003701888619730238
 -0.062384895124943975 0.015321237279865644 0.0006974686051876496 0.004972639716259219 -0.004492563553948978 0.019536107486518867 0.9846771750105129 -0.06778751468037958
 -0.0019080057548108921 0.0023250855105934115 0.06284980779999536 0.0038220110739930445 0.98266655528117 -0.06664426473497753 -0.0031399631962674354 0.01864165706619276
110000000.0 -0.007634312129491724 0.0031486630216350266 0.985292639542892 -0.05781439541009597 -0.06223247604848333 0.016045288582231653 -0.0019901395527061913 0.002302558547523704
 0.9849683043284454 -0.05785886223203609 -0.002698285488055716 0.0036534667886471603 0.0007957201801109655 0.005113936286295276 0.0629435622095982 0.003974743436711077
 -0.06209605784731703 0.016121586149598372 0.0006978420988913925 0.005090955073417151 -0.004162295019619336 0.019678130876555233 0.9842549553268607 -0.07019677637417479
 -0.001937047164280349 0.002378442723466824 0.06290949777254286 0.003920666335169259 0.9810874455347574 -0.07045429044128693 -0.002971353290098144 0.018749436440637576
115000000.0 -0.007723314105771338 0.0025767524392899042 0.984186305944188 -0.061244181680280674 -0.06230786176964683 0.016837386929996458 -0.0021079118843353277 0.0024665043908181166
 0.9864155617189506 -0.06289555936343869 -0.002533358833845866 0.0030616954471909662 0.0007087050284321518 0.005386178305164681 0.06280878405773394 0.0038730144404531077
 -0.061972506350184475 0.016785418530238076 0.0007344326005306967 0.005344394512923532 -0.003861052470283889 0.01985673186779757 0.9826181971859831 -0.07470976637318748
 -0.0019465884304508047 0.0024647553971464706 0.06278934061312202 0.004022959377483785 0.9835953600965162 -0.0759429181064125 -0.002731237122420256 0.018825931394026676
120000000.0 -0.007634971699448363 0.0019108040257667248 0.9837134350804037 -0.06507633410879765 -0.06179428936659621 0.01747740159722839 -0.002080535031161298 0.002501012052288727
 0.9871902953241514 -0.06303787533298945 -0.0023818003902292017 0.00248249527872263 0.000823462948771792 0.005622763950629451 0.06281628765452606 0.00399089641011119
 -0.062004222414725016 0.01743023566394221 0.0008104902042473074 0.005545483477118073 -0.003464690100396048 0.019822383768527664 0.9818697451158896 -0.07905502283055751
 -0.0020371199614474538 0.0025570876701954642 0.06270887957275156 0.003914384375105792 0.9831890417327951 -0.07875236534764628 -0.002392630694083042 0.018956491189434536
125000000.0 -0.007739323514478605 0.0014994243219516924 0.9893799143747566 -0.06696625025131912 -0.061812784984097584 0.01804932807041944 -0.001991643348658704 0.0026130713439812786
 0.9853338681454379 -0.06764920695554949 -0.0021364557699754755 0.0021671546350568553 0.0008548904112684165 0.005744419834366604 0.06269560874888011 0.004117070096649709
 -0.06184934090085574 0.018118007030466617 0.0007898425716427344 0.00573683529108836 -0.0032960743361060267 0.020179223883199218 0.9820395876583652 -0.08283920303048228
 -0.001992534947062151 0.002585771918238501 0.06298403772398893 0.004194652996393516 0.9818827665934289 -0.08442420720968896 -0.0020896226441993017 0.019072579754627946
130000000.0 -0.007760656317800125 0.0010157713381618728 0.9879557405168028 -0.070193289043312 -0.06153147914201225 0.018896761301168824 -0.0020982036740093343 0.0026695898937916414
 0.9845323946965976 -0.06832657106237158 -0.0019930871294900074 0.001713423810327761 0.0008718986965769597 0.005903538155827166 0.06275047502797143 0.004409218250976764
 -0.06145104113272068 0.018839317490062672 0.0008031663941659293 0.0058788009657627215 -0.002724322603446473 0.02028662545306488 0.9799027170361543 -0.08704858148611486
 -0.0020448583736720396 0.0027132639996756977 0.06287529314270374 0.0042866334719156626 0.9807710069284921 -0.08821381587403768 -0.0017312240428609185 0.019103921182912223
135000000.0 -0.007712380843898952 0.0005368269173431081 0.9859631161321728 -0.07318820057444113 -0.06114589902330729 0.019444908233107457 -0.0021537376210344315 0.0027833866033742435
 0.9835186851332056 -0.07490970498044357 -0.001697208971091698 0.0010781164916152822 0.000922097672913811 0.006127796739616148 0.0626676350399455 0.004483598022878341
 -0.06116149997717237 0.019372554899623484 0.0008865676949953978 0.006172582865798409 -0.002445922629938151 0.020472977557042665 0.9799928204002406 -0.09095179497249556
 -0.002112044617416713 0.0027831615150047486 0.06290082216262163 0.0046118077857784335 0.9811879614312481 -0.08914398275304572 -0.001401955343787015 0.01931814200379146
140000000.0 -0.00769746559829751 0.00016826844031066026 0.9850040291137775 -0.07729994882478833 -0.060964691479665344 0.02028498083406646 -0.0020968031131777406 0.0028713273199434852
 0.9840129201450342 -0.0753710217826023 -0.001410483228551266 0.0006944994630648256 0.0009555700283458945 0.00627591166509432 0.06265922552476967 0.004697403699902848
 -0.06109751205474843 0.020135115678570646 0.0009841165266634318 0.0062544164326075 -0.0020813487782230067 0.020740520896481304 0.9821772292211016 -0.09423812665125197
