!Agilent Technologies,E5071B,JP1KK00267,A.09.10
!Date: Fri Sep 22 11:05:48 2017
!Data & Calibration Information:
!Freq	S11:SOLT4(ON)	S12:SOLT4(ON)	S13:SOLT4(ON)	S14:SOLT4(ON)
!	S21:SOLT4(ON)	S22:SOLT4(ON)	S23:SOLT4(ON)	S24:SOLT4(ON)
!	S31:SOLT4(ON)	S32:SOLT4(ON)	S33:SOLT4(ON)	S34:SOLT4(ON)
!	S41:SOLT4(ON)	S42:SOLT4(ON)	S43:SOLT4(ON)	S44:SOLT4(ON)
! "David Morgan-soldered to Test PCB SM1, calibration OSLT PCB 1000029771 Edge launch SMA connectors, port 1-pin1,port 2-pin6,port 3-pin4, port 4-pin3 ENA E5071B"
!
! Created with skrf 1.8.0 (http://scikit-rf.org).
# Hz S RI R 50.0 
!freq ReS11 ImS11 ReS12 ImS12 ReS13 ImS13
! ReS14 ImS14
! ReS21 ImS21 ReS22 ImS22 ReS23 ImS23
! ReS24 ImS24
! ReS31 ImS31 ReS32 ImS32 ReS33 ImS33
! ReS34 ImS34
! ReS41 ImS41 ReS42 ImS42 ReS43 ImS43
! ReS44 ImS44
!
5000000.0 -0.04811281321220765 0.20630226890356088 0.9509413939426076 0.20341754446264274 -0.06645488146591472 -0.0011011525235714874 -0.0075247200501554435 0.011418427209071482
 0.9511436622201588 0.20360369088118077 -0.04430899961997326 0.20864187719895863 -0.0040726620759653 0.012310844462567121 0.05527433107461673 0.025588399355952182
 -0.06652313265112629 -0.0011493193416448496 -0.004072645461888906 0.012244964524778836 -0.047949412169818496 0.20934133782025843 0.9506638147786863 0.20472534319811353
 -0.007535006956614187 0.011397287903515992 0.05519321946294793 0.025493893990097386 0.9507862849201851 0.20570606213263865 -0.04706418639424988 0.21164941860239217
10000000.0 -0.013837539100343564 0.1066960898094792 0.9839173320248984 0.10077227614536936 -0.06477148252524557 0.0008809209212666182 -0.0034877318204141797 0.00664374182753812
 0.987189987358012 0.10037549219042755 -0.009136524593826089 0.10798728125043228 6.944327936295384e-05 0.007082525150870507 0.06172396029293557 0.01416404653136972
 -0.06483878879374215 0.0008185661802483386 2.4276644432563095e-05 0.007083280646244278 -0.012945253583892197 0.10879277542137901 0.9868787216228425 0.10010160851729501
 -0.003536973722574265 0.006623634491670797 0.0615904680625652 0.013996051949756026 0.9861538543978364 0.10061533546607523 -0.011139707995242741 0.11028097048126373
15000000.0 -0.007154628132011157 0.07058794631267278 0.9926540475811407 0.0606271038232604 -0.06454176340783906 0.00178308631792548 -0.002713912589372728 0.00476818048344892
 0.9938423576863467 0.06285338893214713 -0.002376753453235647 0.07144763153591516 0.0007755217173420172 0.004967465139999287 0.0630565290036582 0.009798824277211168
 -0.0646709336484091 0.0016821731009386402 0.0009176016038498684 0.0049169947649485 -0.0060872711967350146 0.07279167457743678 0.9920215402807636 0.06130017633357444
 -0.002708120461954551 0.004735119927622236 0.06297750246796406 0.009655374788845258 0.9912189087734816 0.06032371709824938 -0.0037703728860526806 0.07373521828551954
20000000.0 -0.004671840783001347 0.05188544972552556 0.9933070610186546 0.040119179858473145 -0.06419392562966977 0.002430513674252778 -0.002313889003714752 0.003691216363827611
 0.9984060318486502 0.03944708492937693 -0.00026929250896163566 0.05266114791972094 0.0010356262369987665 0.004017025364223564 0.06359556081930885 0.007521240005592787
 -0.06460891073617364 0.002512289839830683 0.0011027685147314411 0.0039433243037027 -0.0035141291649286137 0.05406591612825856 0.9942747791129609 0.03709019796175064
 -0.002361832678475292 0.0038073466839842088 0.06346628654055995 0.007561150278747584 0.9915905681002264 0.03648871914226821 -0.0015332576271540066 0.054663473775415285
25000000.0 -0.00424461849337743 0.040205890181834396 0.9951744030154275 0.02452305419128484 -0.06445733394613638 0.002994519655536822 -0.002117542293103497 0.002986234173349797
 0.9974078132950434 0.02841142156687606 0.0001299307059922184 0.04078930416597887 0.0010819828121854651 0.0035280468694766256 0.06370052417154834 0.006178809902441295
 -0.06471650911879208 0.003229025534085292 0.0010433518135255792 0.0033586391834598056 -0.003359552067722766 0.04272395500086931 0.9960656911437139 0.020842270243848805
 -0.0021110682916391094 0.0031167106020915042 0.06371489621783233 0.006325142434181704 0.9924669612492439 0.021746221233210513 -0.0009355124623678922 0.04331588932400235
30000000.0 -0.0046583984458620845 0.03248099306656074 0.9936302298834212 0.011388641636882083 -0.06437476451937454 0.003886018914299615 -0.0021290210345567212 0.002784573409583154
 0.9965963689006716 0.016445957800236458 -0.0002239737264892631 0.033056550448158535 0.0010770789952018998 0.003211674963863302 0.06405688747098963 0.0052751737592374014
 -0.06450053970902414 0.004017118273620272 0.0011261202844905277 0.0030383276438022268 -0.0037599387288374513 0.035305268471814144 0.9950095947317704 0.010431490483856942
 -0.0020752314127239664 0.002757017440367506 0.06372001553525797 0.00524735910858623 0.9936136813799751 0.012101418744852691 -0.0013681257166084874 0.03583424049750434
35000000.0 -0.005551706210256217 0.02732583246447988 0.9933087136132672 0.008011327029011585 -0.06451881729438307 0.004614806143581786 -0.0020737070640932855 0.0024902659129000166
 0.9944765088899604 0.0083749144749919 -0.001082070665867242 0.027674372033207464 0.0009531416588225598 0.0030251366800592623 0.06396884061111602 0.004811447986240727
 -0.0644568790764776 0.0048644127047521996 0.0009175298268244417 0.0029955073608051784 -0.004432779698575103 0.03041797114232638 0.9928828273779018 0.001072089426231349
 -0.002055237104831323 0.002518856465442419 0.0639187942309276 0.00481732772503456 0.9915316465742279 0.0009725725891835951 -0.00218017066252508 0.030554256536627116
40000000.0 -0.006071924535389962 0.023559795830398002 0.9920498182998652 -0.0014290629429260086 -0.06447300187661502 0.005776407123338628 -0.0021103879479518997 0.002314574794773337
 0.9906498999103353 0.0002470622562966394 -0.0017159005335953405 0.023991536674824385 0.0008810162165878625 0.0031243383743673743 0.06391487794414652 0.004562155457974587
 -0.06443397984283145 0.00544125157632185 0.0008947964437141249 0.003054826512679049 -0.005164996228281081 0.027059436631944756 0.9913248473908135 -0.005082870482265726
 -0.002102228136998818 0.0023243138570150307 0.06380502524283399 0.0041949500925787765 0.991562898401779 -0.008811474499704633 -0.0028455569252902636 0.02723373195490819
45000000.0 -0.006683535417528658 0.020871956138872057 0.9908470922780184 -0.006300859765342352 -0.06430769904940488 0.006236988504173872 -0.002029394192992355 0.0021753680581249133
 0.991354535410545 -0.005580678376122586 -0.002350704377533227 0.021322677690531353 0.0008985819851141897 0.003083993052785096 0.0637560255512696 0.00410712071156653
 -0.06433949521734726 0.006409460254272151 0.000848693579627663 0.0030459872721405237 -0.005621770413394162 0.02483639370065439 0.9915210492335941 -0.01411452649378472
 -0.00207119159215922 0.002209834449778641 0.0638804087981783 0.004048215636271352 0.9889262946115492 -0.012686158020469194 -0.0033461727524018827 0.02473708898601821
50000000.0 -0.0070865303436419575 0.018751582870529228 0.9900354920434826 -0.010591189425467086 -0.06419388788020544 0.007079132954948581 -0.002052714677624626 0.002206434238121199
 0.9897649353075643 -0.008818142402946158 -0.0028352451306220905 0.019155937172251673 0.0008906568746148043 0.0033441423002397194 0.06386342036039534 0.00387582622455368
 -0.06428222464022254 0.007001788283860292 0.0008233604636232373 0.0032284272696020016 -0.005837297384544955 0.0233229667621226 0.9904636990310075 -0.01971544097464899
 -0.0020458479190633657 0.0022975249943225752 0.06376345601022376 0.004008901394749013 0.9864913180674902 -0.01960056030040773 -0.0037695583798868 0.023150438755545896
55000000.0 -0.0072585613539586 0.01714842561301113 0.9898428142934628 -0.014827365227931672 -0.06429502468006651 0.007849446609172623 -0.002136581070041756 0.0020683445864496013
 0.9896850601636996 -0.013486715352748565 -0.0032320714862456956 0.01770780588271464 0.000882495639646063 0.0034208338484017853 0.06371644016486123 0.00375282470024929
 -0.06433414095483499 0.007914170662631826 0.0007893119562798924 0.0033767890377564428 -0.006142888483074352 0.022126394654361923 0.9893566277108811 -0.02499837629252353
 -0.002079325269047732 0.0021272179183924565 0.06368739819078799 0.0038302271385156576 0.9891649766829644 -0.024518091252881076 -0.0038641884897640763 0.021911100288959148
60000000.0 -0.00765453064132661 0.015828798556742497 0.9869576211373935 -0.018666934331294082 -0.06404738701515308 0.008533572471296916 -0.0020687107594564687 0.0021054881653658963
 0.990523686749211 -0.01738596107540452 -0.003418778318007338 0.016356354510296895 0.0008256661725237345 0.003665831112400514 0.06371292684708589 0.0037462328681749342
 -0.06414841125144725 0.008631824563083758 0.0008122511946566646 0.0035772234371820493 -0.00608343321262212 0.021360161484459288 0.9882336673285473 -0.02834858965682908
 -0.0021487685807428892 0.002173907112591206 0.06352462930071595 0.0038005362360154942 0.9875612115064851 -0.030485114074707928 -0.004131452555443738 0.021028852804518598
65000000.0 -0.007718507106229216 0.014759436437770397 0.9891430882115576 -0.022244361750784532 -0.06400923673057249 0.009364181111338098 -0.002086387982700011 0.002166336698694366
 0.9901919444004909 -0.02151665692597623 -0.003639983668135465 0.015476496935918009 0.0008286132489845851 0.003803565572928085 0.06357267201075258 0.0036917122763193387
 -0.06400786065457187 0.009421268224120039 0.0008466351630060984 0.003722713085788618 -0.006158995713256032 0.02074468128025966 0.9882803206242731 -0.03327041845505116
 -0.002187829646961382 0.0022179810008351856 0.06345049415424095 0.003750813922119538 0.9845172358961887 -0.03491253960369447 -0.004079028702792762 0.02038613752689097
70000000.0 -0.007697335040803159 0.013804367495711999 0.9901158230804048 -0.025047508558302345 -0.06379866789470284 0.010158598826867656 -0.0021611516036346805 0.0021435033732071515
 0.9878324761618106 -0.02651186037728956 -0.0035133936322256413 0.014416347063054667 0.0009297504426857599 0.004003254230937312 0.06360582316573213 0.0037190788754390483
 -0.06385290575297262 0.010115934277393377 0.0008234022408645914 0.003911308977848823 -0.0060220055927640665 0.020367539540441276 0.9871574762472881 -0.039180219743430986
 -0.0021079558659580105 0.002241951846665882 0.06358608217715943 0.003910967366035649 0.989650273560566 -0.03744955314554385 -0.004052394563009821 0.019886707644482002
75000000.0 -0.007805457035030246 0.013100273277917731 0.9912876734808244 -0.026221721282841306 -0.0634870446771666 0.010781117461498669 -0.0021747142323463174 0.002247158327221544
 0.9876919920775541 -0.029007936824119264 -0.0035867665521983143 0.01361982480281121 0.0008499941963083314 0.004208279647712101 0.06346606219279499 0.0038216782952647773
 -0.06364516488369829 0.010813911722289274 0.00085236373540911 0.004145959335762519 -0.005945096618224124 0.020168251187587298 0.9844900729855575 -0.04299311280846523
 -0.002102284149614134 0.0022697994251469743 0.06344963556750671 0.004141915466888666 0.986239705185474 -0.04363647788330098 -0.0040662060255694035 0.01945924939361673
80000000.0 -0.007944765367529498 0.012340393689167888 0.9886328125369661 -0.03208149992657456 -0.06366613568233681 0.011639787639314997 -0.002229451489847487 0.0023231130038284024
 0.9846964574095312 -0.03333061778687575 -0.003606652626320361 0.01297438724642273 0.0009089573127360757 0.004418884701946799 0.06336695993491706 0.003890804633242112
 -0.06331463759671672 0.01142701396624105 0.000896662616824282 0.004299961975488924 -0.005775702043908309 0.01993775282149883 0.9857863013534304 -0.04946878062939326
 -0.0021620040453970203 0.002328206399412116 0.06354163483250036 0.003952593390714538 0.9872153023237347 -0.043805290761406254 -0.003921101589892136 0.019254939614318307
85000000.0 -0.007781010650759327 0.01185068449853465 0.987045099674249 -0.03581210789732826 -0.06336129906005113 0.012285778987627335 -0.002216587691549097 0.0023805953750208426
 0.9877841008243826 -0.03617630839313316 -0.0035441575728146837 0.012522034473327791 0.0009423139412009504 0.004610914026786868 0.06335164486770013 0.0040920627039138305
 -0.06340138034446352 0.012264504631607626 0.0008240343226998567 0.004470559289551206 -0.005496301272149126 0.019793397232737205 0.9878257764691406 -0.05068954826974956
 -0.0021597953096512807 0.0023399576946793142 0.0631613949124734 0.004089219816095731 0.9861502178648357 -0.05130788223390042 -0.0037658751662480307 0.01902759971113364
90000000.0 -0.007832230893840516 0.01132823618321251 0.9866903418557481 -0.03904033925173535 -0.06318579627070185 0.012991099313126836 -0.0022216585146722606 0.0024060964445219743
 0.9890770473609485 -0.03816956278585328 -0.0034693005410464496 0.011843132166241294 0.0009128516290848709 0.004824396623185138 0.06332563986128853 0.004093348500802044
 -0.06341829372768505 0.012945252233464452 0.0009013454210467289 0.00478693530417291 -0.005219578058722262 0.01969392101498009 0.9868122853025246 -0.05588015328082161
 -0.0022497238873690874 0.002432527844810278 0.06326851065173379 0.004098643061180516 0.9869943250016159 -0.05445292760932031 -0.003663181530787532 0.01891451576871967
95000000.0 -0.007907456502319572 0.010853535474641697 0.9865117436118417 -0.04073247164985023 -0.06303294743200598 0.013676809160320925 -0.0022889485306489188 0.0024766388081909813
 0.9866148463983755 -0.04086978848910899 -0.0032786325283630027 0.011408170466707755 0.0009652683236437319 0.00498638121293406 0.06325186664904495 0.004222696008672894
 -0.06305251201592094 0.013696265168381386 0.0009589304036933843 0.004908638516517229 -0.004944346258253057 0.01968964889789758 0.9853742455956913 -0.05876660800895691
 -0.002247453952345539 0.002530789964505587 0.06318079340845709 0.004143472329264553 0.9850604817131398 -0.05877367255164491 -0.0034380365616256676 0.018951570985082603
100000000.0 -0.007897555972548362 0.010464100150927975 0.986892682995627 -0.04514303263156534 -0.06277696389715988 0.014342216526547878 -0.0023300427240441463 0.002476587883462238
 0.9870466014243219 -0.04523918657055471 -0.003114183320975799 0.011020927048489988 0.0009220358212586142 0.005231340691549461 0.06318925970422688 0.004472706153163092
 -0.06294581889990106 0.014345656902400881 0.000955944480001418 0.0052127744911164816 -0.004820549103299506 0.019746227202645746 0.9850174121762713 -0.0630166957116234
 -0.0023068255742202688 0.0025948175156209523 0.06318268122779293 0.004376654511409289 0.9833905535571988 -0.061904738081541434 -0.003132883515416119 0.018968674299995263
105000000.0 -0.007905487362061732 0.01013444902950223 0.9868212965685532 -0.04501817601563641 -0.06269942362120491 0.015086136534480932 -0.0022869105876396345 0.0025972514171413636
 0.987979145127926 -0.046042624853851334 -0.002975232078121378 0.010747495003861464 0.0010251338540786148 0.0054226284908904234 0.0630734296674608 0.004537777314416662
 -0.06268146842100163 0.01513749531513473 0.0009734855365059777 0.005400890989717361 -0.004561604149727188 0.019727373013850864 0.9841670623227919 -0.06746387780485871
 -0.0022587012912126804 0.0026846421159292546 0.06322080245228454 0.004583720230176356 0.9831987239035168 -0.06512649546539813 -0.0028708007413972827 0.018895709677759227
110000000.0 -0.00800693891270663 0.009918112863388694 0.9855639841321631 -0.052663766190882894 -0.062453946191649984 0.015723854225332623 -0.002267168650218381 0.0027468359595814564
 0.9878132794768524 -0.051178718027672515 -0.002654607807828776 0.010316661015347029 0.001042459903942807 0.005599180655742394 0.06311456351201787 0.00462795524400801
 -0.06254670812930974 0.015839992536839795 0.0009292922096928311 0.005637136382781379 -0.004340529333514671 0.01985003249393983 0.9837916498306573 -0.06887825389943401
 -0.002324840815882378 0.0027639884384706103 0.06306675269838627 0.004459491483427866 0.9799263123764645 -0.06889584079993658 -0.0026821476813507104 0.018818039081276022
115000000.0 -0.00799610128075607 0.009604374623462865 0.9857195081846983 -0.0544915875717548 -0.06253305157392787 0.01655370750534539 -0.0023808556607096847 0.0028907161539133176
 0.9859790187506206 -0.054193132127413814 -0.002460359612600686 0.010095634022279604 0.0010325872838104285 0.005867392685523896 0.0630371598639418 0.004678550496934378
 -0.06237419610342324 0.016473102344034957 0.0010236729103520153 0.0058487752485660745 -0.0039935509611083025 0.020046032912795688 0.9843171739104972 -0.0715002431974016
 -0.0023359411096898616 0.002831960392984295 0.06301440791369091 0.004821640256401456 0.9813404396880264 -0.07488061703447094 -0.0023752986782715505 0.0189920644482747
120000000.0 -0.007905629752616326 0.009413985617014729 0.9864456634544088 -0.05593236682763819 -0.06195035571663913 0.01724103442487804 -0.002420366364783139 0.0030011038391488383
 0.9889341116405772 -0.0570532905780364 -0.002292120789790268 0.009849568653890334 0.0010554085453190931 0.006011936485483976 0.06296539486413119 0.004841520496618233
 -0.062418969134617204 0.017352085363248792 0.0010141747445548874 0.005981215533490451 -0.0036756675313615213 0.020068363957408193 0.9817581908146488 -0.07744283748209846
 -0.002303954087046669 0.0029830444400123775 0.06304831793347543 0.0047789011008022375 0.9809022699833774 -0.07757037962825758 -0.0019989988528256114 0.019106226134135706
125000000.0 -0.008038446677131638 0.009138546172581712 0.9905013562589284 -0.05771704996376665 -0.06205227275041854 0.017748907194197906 -0.002398750970083249 0.003131654900779469
 0.9848867218515905 -0.05897383549773915 -0.002011607685005408 0.009656551640160733 0.0010896834575505746 0.0062236506885201695 0.06282244548038464 0.004872160391688663
 -0.062061886419058604 0.017832422117240412 0.0010952088270183237 0.006223375062072283 -0.003349457680272048 0.020261709487443817 0.9809667030804933 -0.0818530161445756
 -0.0023725049609395056 0.0030268229233469226 0.0632434125157499 0.005087589831126695 0.9802926446734037 -0.08353958547885619 -0.0017215962933309027 0.019231348705187976
130000000.0 -0.00801743194718529 0.009070699742081497 0.9877775770747081 -0.06155227321596142 -0.061735071692091234 0.018575094930587618 -0.002446120354646481 0.0032433074221472286
 0.9847922269234763 -0.061046074355199355 -0.001757325198659949 0.009639234998472851 0.0010994508233349133 0.00643544042886111 0.06294691293310523 0.005338134162695912
 -0.06178599741306337 0.018572308804270132 0.0011048591142571178 0.006434079427959782 -0.0029387971688399203 0.020448747511538853 0.978672722373146 -0.0854328910809424
 -0.002368276179192146 0.003143151040821352 0.06295257857677979 0.005155460583750371 0.980042879568704 -0.08680152562874686 -0.0013073276941421375 0.019238872836295544
135000000.0 -0.00800679256350285 0.008852219481728915 0.9877477515608255 -0.06644265768877156 -0.061555911469893504 0.01908440963449216 -0.00243045487161808 0.003321999688149133
 0.9847572275267548 -0.06559981607441223 -0.0014475637970606658 0.009459308647302716 0.0012004029487139424 0.006641128511730605 0.06292602754566695 0.0053640325283684466
 -0.06158477314949205 0.019144148853819678 0.001178035297750585 0.0066299589097404835 -0.0027428434075286805 0.020721189907046366 0.981782460860733 -0.08909913805965863
 -0.0024282245680393457 0.0032840978114107 0.06305252006076893 0.005347067875206506 0.9814940963221325 -0.08632612081843076 -0.0010479190354311624 0.01946262408376297
140000000.0 -0.007988677681822626 0.008877652261703402 0.9874020055788947 -0.06796993859142468 -0.06149159031904135 0.0198751101879568 -0.0023445075319173856 0.0033262127412621713
 0.9849343751661955 -0.06640100298251952 -0.0011652967734784717 0.009224623373775677 0.0012082617597870798 0.00682272550315212 0.06292833786805738 0.005482044652113307
 -0.061384430872075575 0.01980663798441636 0.0011871728434166018 0.006856593503666915 -0.0022382024832096207 0.021029774565221284 0.9826809182661299 -0.09247336812705399
